#  HZ   S   RI   R     50.00 
! Rohde & Schwarz ZVA24 4Ports - Version 2.92 - 1145.1110k26 SN: 100307
! Date: 2021-03-18 21:22:40
! Measurements: S11 S12 S13 S14 S21 S22 S23 S24 S31 S32 S33 S34 S41 S42 S43 S44 
! 
 1.165000000000000E10   -6.206431984901428E-1  -6.227782368659973E-1   2.089013833028730E-6   1.042066401168995E-6  -1.891210377216339E-1   2.096627652645111E-1   7.178873033808486E-7  -5.932090516580502E-7  
                        -4.648232334147906E-6   4.177246921699407E-7  -7.921043783426285E-2  -9.911244511604309E-1   2.597474349386175E-6  -1.179329501610482E-6  -6.051137670874596E-2   4.567197524011135E-3  
                        -1.882212460041046E-1   2.099485695362091E-1  -3.578318455765839E-6  -1.712030098133255E-6  -7.235161066055298E-1  -6.038485169410706E-1   1.364415879834269E-6   2.349705027882010E-6  
                         1.791501063053147E-6  -1.388402068869254E-7  -6.038510799407959E-2   4.227015189826489E-3   4.937479843647452E-6   3.715404773174669E-6  -5.003266036510468E-2  -9.895508885383606E-1  
                        
 1.165015000000000E10   -6.216502189636231E-1  -6.218888759613037E-1  -1.265866217181610E-6   7.341054129028635E-7  -1.889467090368271E-1   2.101373672485352E-1   5.818412319058552E-6   7.000983970328889E-8  
                         2.929282914010400E-7  -3.290481799922418E-6  -8.029912412166596E-2  -9.909699559211731E-1   6.847942017884634E-7   1.927219045683160E-6  -6.056414917111397E-2   4.599563311785460E-3  
                        -1.881164014339447E-1   2.104195058345795E-1   1.676126885286067E-6  -1.706843022475368E-7  -7.244315147399902E-1  -6.027576327323914E-1  -5.592478373728227E-7   2.240605454062461E-6  
                        -2.086867652906221E-6   2.922894566381729E-7  -6.038713082671166E-2   4.303932189941406E-3   5.022047275815567E-7   4.633565424683184E-7  -5.112845078110695E-2  -9.897009730339050E-1  
                        
 1.165030000000000E10   -6.225052475929260E-1  -6.208648085594177E-1  -1.352317553937610E-6   4.700171757576754E-6  -1.888398081064224E-1   2.105678319931030E-1  -2.078169700325816E-6  -2.692798943826347E-6  
                        -1.738063019729452E-6   3.541363867043401E-6  -8.160691708326340E-2  -9.910053014755249E-1  -1.600542418600526E-6   1.696351318969391E-6  -6.058814004063606E-2   4.651441238820553E-3  
                        -1.879740506410599E-1   2.108729183673859E-1   4.491847448662156E-6   3.431471213843906E-6  -7.252672314643860E-1  -6.016369462013245E-1  -5.186086582398275E-7   1.409839455845940E-6  
                         5.523434538190486E-6   1.365218054161232E-6  -6.042516604065895E-2   4.407080356031656E-3  -2.311697699042270E-6  -3.823690349236131E-6  -5.235257372260094E-2  -9.895866513252258E-1  
                        
 1.165045000000000E10   -6.234529614448547E-1  -6.199219226837158E-1  -9.599489203537814E-6   1.738200808176771E-6  -1.886957883834839E-1   2.110408693552017E-1  -9.142656836047536E-7   5.611972255792352E-7  
                         9.332658237326541E-7   3.596112492232351E-6  -8.275354653596878E-2  -9.908586144447327E-1  -1.788750296327635E-6  -2.516974973332253E-6  -6.059277057647705E-2   4.746177233755589E-3  
                        -1.878030151128769E-1   2.113498151302338E-1   8.481640065838292E-7   2.616720848891418E-6  -7.260140776634216E-1  -6.004088521003723E-1  -3.369358864802052E-6   1.226348786076414E-6  
                         5.999992822580680E-7  -3.506835582811618E-6  -6.047951057553291E-2   4.446636885404587E-3   3.682349870359758E-6  -6.509762329187652E-7  -5.344185978174210E-2  -9.895959496498108E-1  
                        
 1.165060000000000E10   -6.242403984069824E-1  -6.189500689506531E-1  -4.006353265140206E-6  -2.576212182248128E-6  -1.885714828968048E-1   2.115400135517120E-1  -1.972008703887695E-6  -5.384560495258484E-7  
                        -3.792754796450026E-6  -1.148922706306621E-6  -8.402913808822632E-2  -9.907355904579163E-1  -1.391141154272191E-6   3.743457227756153E-6  -6.067207455635071E-2   4.812914412468672E-3  
                        -1.877010464668274E-1   2.119009792804718E-1  -1.318977865594206E-6   2.866780050680973E-6  -7.268521785736084E-1  -5.993676781654358E-1  -6.691485850751633E-6   3.650555072454154E-6  
                         4.719759544968838E-6  -3.921596544387285E-6  -6.049596518278122E-2   4.558596760034561E-3  -3.973636012233328E-6   2.314361381650087E-6  -5.476290360093117E-2  -9.893867373466492E-1  
                        
 1.165075000000000E10   -6.252012252807617E-1  -6.180331707000732E-1  -5.225874247116735E-6  -5.653503194480436E-6  -1.884402930736542E-1   2.120218575000763E-1  -9.184727218780608E-7   2.951452700017399E-7  
                        -9.715055284686969E-7   2.382478214713046E-6  -8.511672168970108E-2  -9.906671643257141E-1   7.264415216923226E-6  -7.177828820204013E-7  -6.069901585578919E-2   4.895736463367939E-3  
                        -1.875407248735428E-1   2.123325765132904E-1   2.452542048558826E-6  -3.685160891109263E-6  -7.276952862739563E-1  -5.982450842857361E-1  -2.995989234477747E-6  -2.133150019290042E-6  
                        -6.248480076465057E-6   2.734288671035756E-7  -6.051713228225708E-2   4.575299564749003E-3   4.160663593211211E-6   6.738168849551585E-7  -5.583439022302628E-2  -9.893739819526672E-1  
                        
 1.165090000000000E10   -6.260748505592346E-1  -6.170396804809570E-1   3.235232725273818E-6  -3.233660208934452E-6  -1.883185952901840E-1   2.125385701656342E-1   6.233091426111059E-6  -2.636120825627586E-6  
                        -5.732955287385266E-6   5.593122295977082E-6  -8.637144416570664E-2  -9.905598163604736E-1   4.757882379635703E-6   9.926392294801190E-7  -6.072183698415756E-2   4.988608416169882E-3  
                        -1.874122023582459E-1   2.127423435449600E-1   4.992418780602748E-6   7.267051387316315E-7  -7.285662889480591E-1  -5.969479084014893E-1   2.035491434071446E-6   2.096110165439313E-7  
                        -1.043408587975137E-6   3.916563855455024E-6  -6.052187830209732E-2   4.643546883016825E-3  -8.692306892044144E-7  -3.122599537164206E-6  -5.721043422818184E-2  -9.892480969429016E-1  
                        
 1.165105000000000E10   -6.269941329956055E-1  -6.161410808563232E-1  -4.744529178424273E-6  -3.678840698739805E-8  -1.881572753190994E-1   2.129754126071930E-1   4.230849981468055E-8   5.039237294113264E-6  
                         5.678900379280094E-6  -1.481088816035481E-6  -8.756547421216965E-2  -9.905298948287964E-1   1.764176090546243E-6   4.911004225505167E-7  -6.072476133704186E-2   5.039581097662449E-3  
                        -1.873143315315247E-1   2.132422924041748E-1   1.436334514437476E-6   6.312571021460656E-10  -7.293795347213745E-1  -5.958951115608215E-1  -1.477687533224525E-6  -3.224347210561973E-6  
                        -2.110265995725058E-6  -3.383936473255744E-7  -6.057584658265114E-2   4.742705728858709E-3   7.091740599207697E-7  -7.611668024765095E-7  -5.828308314085007E-2  -9.892485737800598E-1  
                        
 1.165120000000000E10   -6.278740763664246E-1  -6.150979399681091E-1   9.592267815605737E-7   2.123763579220395E-6  -1.880137026309967E-1   2.134282588958740E-1  -3.806220547630801E-7  -1.418312081113982E-6  
                         7.498496188418358E-7  -6.262137048906880E-7  -8.873728662729263E-2  -9.903655648231506E-1   3.978828772233101E-6   1.611061009043624E-7  -6.076522916555405E-2   5.129802506417036E-3  
                        -1.871047765016556E-1   2.137348502874374E-1  -7.147381211325410E-7   3.142185278193210E-6  -7.301324009895325E-1  -5.946958065032959E-1   4.483099928620504E-6  -4.597039605869213E-6  
                         2.256942252643057E-6  -5.464551577460952E-6  -6.058333069086075E-2   4.813785664737225E-3   1.279101184081810E-6   9.282814517064253E-8  -5.944409221410751E-2  -9.891127943992615E-1  
                        
 1.165135000000000E10   -6.288083791732788E-1  -6.140999197959900E-1   3.638317878085218E-7  -6.327386017801473E-6  -1.878558844327927E-1   2.139202058315277E-1  -2.051505362032913E-6  -1.375296506012091E-6  
                         4.977358457836090E-6  -1.863157308434893E-6  -8.993803709745407E-2  -9.902381300926209E-1   2.498858520993963E-6   1.657414145483926E-6  -6.078904494643211E-2   5.192847456783056E-3  
                        -1.869067996740341E-1   2.142181098461151E-1   4.847400305152405E-6   2.634926886457834E-6  -7.310802936553955E-1  -5.935166478157044E-1   1.859809572124505E-6  -1.314963355980581E-7  
                        -3.131812889023422E-7   7.386271931864030E-7  -6.060992181301117E-2   4.897259175777435E-3   8.742597401578678E-7   2.350160912101273E-6  -6.073458492755890E-2  -9.891263246536255E-1  
                        
 1.165150000000000E10   -6.296901106834412E-1  -6.131820082664490E-1  -2.735726411629003E-6   3.320610858281725E-6  -1.878121495246887E-1   2.143747806549072E-1   1.121422201322275E-6   4.222713869239669E-6  
                         1.734750640025595E-6  -1.065398237187765E-6  -9.108074754476547E-2  -9.901419281959534E-1   9.310977020504652E-7   1.416795953446126E-6  -6.080645695328713E-2   5.298863165080547E-3  
                        -1.868248283863068E-1   2.147185206413269E-1   4.900974090560339E-6   7.270998736430556E-8  -7.317619323730469E-1  -5.924813151359558E-1   4.250298843544442E-6   4.900765020465769E-7  
                         7.600332878610061E-7  -1.536488866804575E-6  -6.065572798252106E-2   5.011513363569975E-3  -1.120757588068955E-6   5.372534701564291E-7  -6.183749437332153E-2  -9.889335632324219E-1  
                        
 1.165165000000000E10   -6.305224895477295E-1  -6.121214032173157E-1   2.272365918543073E-6   4.558249202091247E-6  -1.876601129770279E-1   2.149724513292313E-1  -8.784129022387788E-6   2.616521214804379E-6  
                         1.524737029967582E-7   1.052544462254446E-6  -9.234815090894699E-2  -9.900349974632263E-1  -3.372762421349762E-6  -1.482659854445956E-6  -6.086934730410576E-2   5.368142854422331E-3  
                        -1.866379529237747E-1   2.151528149843216E-1  -4.288043328415370E-6  -4.155358510615770E-6  -7.326017022132874E-1  -5.913277268409729E-1   1.268131200049538E-7  -1.527913354948396E-6  
                         2.128147571056616E-6  -1.458631345485628E-6  -6.071705743670464E-2   5.058928858488798E-3   1.200307565341063E-6   1.850207809184212E-6  -6.300693005323410E-2  -9.888689517974854E-1  
                        
 1.165180000000000E10   -6.314744353294373E-1  -6.111956238746643E-1  -4.112374881515279E-6   2.491800159987179E-6  -1.874537318944931E-1   2.154133915901184E-1  -4.903019089397276E-6  -2.272556457683095E-6  
                        -1.868399522209074E-6  -7.322547901367216E-8  -9.357293695211411E-2  -9.898264408111572E-1  -1.986099505302263E-6  -2.688982021936681E-6  -6.087258830666542E-2   5.401848815381527E-3  
                        -1.865463107824326E-1   2.156718522310257E-1   1.955702600753284E-6  -2.588683855719864E-6  -7.334783077239990E-1  -5.900278091430664E-1   4.750409630105423E-7   1.930139205796877E-6  
                         1.630988663237076E-6  -2.217563178419368E-6  -6.068605184555054E-2   5.146288312971592E-3  -1.103997988138872E-6   6.604881491512060E-6  -6.418447941541672E-2  -9.888349175453186E-1  
                        
 1.165195000000000E10   -6.322867274284363E-1  -6.102022528648377E-1   7.379205158031255E-7   6.227206085895887E-6  -1.873090863227844E-1   2.158928215503693E-1  -2.132274630639586E-6  -6.855380888737273E-6  
                        -2.362556870139088E-6   6.636880698351888E-7  -9.474067389965057E-2  -9.897376298904419E-1   1.176396494884102E-6  -1.417505814060860E-6  -6.092174723744392E-2   5.513920448720455E-3  
                        -1.863722950220108E-1   2.161349356174469E-1  -3.476739891539182E-7  -5.796747473141295E-7  -7.342587113380432E-1  -5.889232754707336E-1  -6.245204531296622E-6  -1.754937557052472E-6  
                        -5.681495736098441E-7  -1.966961235666531E-6  -6.071552634239197E-2   5.216597579419613E-3  -2.597948423499474E-6  -2.545274355725269E-7  -6.540230661630631E-2  -9.886822700500488E-1  
                        
 1.165210000000000E10   -6.331901550292969E-1  -6.092416048049927E-1  -1.278838453799835E-6   6.237259185581934E-6  -1.872011274099350E-1   2.163569033145905E-1  -6.008469881635392E-6   2.428345169391832E-6  
                         6.291480985964881E-6  -4.546938271232648E-6  -9.599469602108002E-2  -9.897397160530090E-1   1.034393221743812E-6  -7.741761692159344E-6  -6.092105805873871E-2   5.587419494986534E-3  
                        -1.861229091882706E-1   2.166809588670731E-1   3.092707629548386E-6   6.304114208433020E-7  -7.350298166275024E-1  -5.877869129180908E-1   1.375393026137317E-7   4.368906957097352E-6  
                        -2.297536866535666E-6   1.923935144532152E-7  -6.077490374445915E-2   5.262539256364107E-3   2.824067451001611E-6  -6.865375894449244E-7  -6.666097790002823E-2  -9.887083172798157E-1  
                        
 1.165225000000000E10   -6.340184807777405E-1  -6.082558035850525E-1   4.642556206135851E-8   2.754227807599818E-6  -1.870489120483398E-1   2.168205827474594E-1  -8.035003418171982E-8  -7.669623300898820E-6  
                        -3.350533233970054E-6   8.604733920947183E-6  -9.717722982168198E-2  -9.896089434623718E-1   1.621417140995618E-6  -5.386483735492220E-6  -6.097535416483879E-2   5.659783724695444E-3  
                        -1.860834658145905E-1   2.171232700347900E-1   5.236356628302019E-6   3.968845248891739E-6  -7.359163761138916E-1  -5.867469310760498E-1   4.082011400896590E-6  -9.347681952931453E-7  
                         7.333559892686026E-7   3.942433863812767E-7  -6.080129370093346E-2   5.383527372032404E-3  -3.632155198829423E-7   2.890203631977784E-6  -6.785122305154800E-2  -9.886447191238403E-1  
                        
 1.165240000000000E10   -6.350542902946472E-1  -6.072532534599304E-1   1.672434279953450E-7  -2.032698830589652E-6  -1.869441866874695E-1   2.173420488834381E-1   2.015593963733409E-6   3.163530436722795E-6  
                        -3.906824531441089E-6   1.533990030111454E-6  -9.823639690876007E-2  -9.894489645957947E-1  -1.148145088336605E-6   4.062185780639993E-6  -6.098135560750961E-2   5.753452889621258E-3  
                        -1.859180480241776E-1   2.176209539175034E-1  -4.768010057887295E-6  -1.382333039146033E-6  -7.366586327552795E-1  -5.854645371437073E-1   5.306997081788722E-6  -5.292183232086245E-6  
                        -1.419488398823887E-6   7.120221198420040E-6  -6.082457304000855E-2   5.447982810437679E-3  -3.733746041234554E-7  -4.797300334757892E-6  -6.892875581979752E-2  -9.885189533233643E-1  
                        
 1.165255000000000E10   -6.359056234359741E-1  -6.063222885131836E-1   2.728103709159768E-6   1.636643105484836E-7  -1.867955625057221E-1   2.178271114826202E-1   2.191802877860027E-6  -2.064310820060200E-7  
                        -1.777380703060771E-6   4.791928859049222E-6  -9.947460889816284E-2  -9.893433451652527E-1  -1.560217924634344E-6   2.890788664444699E-6  -6.102283298969269E-2   5.825582426041365E-3  
                        -1.857420653104782E-1   2.181096971035004E-1  -4.928879207000136E-6  -5.987718623146066E-7  -7.375232577323914E-1  -5.843416452407837E-1   1.150523644355417E-6   2.584518597359420E-6  
                        -1.533480713078461E-6   2.814267418216332E-6  -6.083301827311516E-2   5.461117718368769E-3   1.314808400820766E-6   4.372372131911106E-6  -7.011765241622925E-2  -9.884393811225891E-1  
                        
 1.165270000000000E10   -6.368030309677124E-1  -6.052303910255432E-1   2.037194917647867E-6  -3.907192876795307E-6  -1.866215020418167E-1   2.183267921209335E-1  -2.778997441055253E-6   9.825638471738785E-7  
                        -2.173072289224365E-6  -3.532540631567827E-6  -1.006260290741921E-1  -9.892011284828186E-1  -3.655559055459889E-7   4.054804776387755E-6  -6.098907068371773E-2   5.894980393350124E-3  
                        -1.855928003787994E-1   2.185528278350830E-1  -5.199145562073682E-6  -1.623611410650483E-6  -7.383387684822083E-1  -5.831895470619202E-1  -3.927997113351012E-6  -1.710119931885856E-6  
                         2.392688998043013E-7   5.732941644964740E-6  -6.086944043636322E-2   5.557489581406117E-3  -2.192374267906416E-6   3.279266138633830E-6  -7.136665284633637E-2  -9.882903695106506E-1  
                        
 1.165285000000000E10   -6.376323103904724E-1  -6.042236685752869E-1   2.398740662101773E-6  -7.420179372275015E-6  -1.865452677011490E-1   2.187366634607315E-1  -1.738199330247880E-6  -4.838677796215052E-7  
                         2.511546654204722E-6  -5.961279384791851E-6  -1.019346415996552E-1  -9.889782071113586E-1   3.947810000681784E-6  -1.493195327384456E-7  -6.104985624551773E-2   5.978719331324101E-3  
                        -1.853809356689453E-1   2.190495133399963E-1  -2.561303745096666E-6   5.389151283452520E-6  -7.391268014907837E-1  -5.819905400276184E-1   3.756077603611630E-6  -1.644850584625601E-7  
                         2.262251200590981E-6  -5.608153514913283E-6  -6.090726703405380E-2   5.695062223821878E-3   2.303467454112251E-6  -1.243872816303338E-6  -7.260520756244659E-2  -9.881705045700073E-1  
                        
 1.165300000000000E10   -6.385422348976135E-1  -6.032267212867737E-1   2.577858140284661E-7  -5.878559022676200E-6  -1.863367706537247E-1   2.193144410848618E-1   4.165733116678894E-6   1.610941353646922E-6  
                         1.312947006226750E-6   6.669615231658099E-6  -1.030334830284119E-1  -9.889368414878845E-1   3.750652240341879E-6   7.236643568830914E-7  -6.108658388257027E-2   6.014363374561071E-3  
                        -1.852573156356812E-1   2.195336818695068E-1   3.951893177145394E-6  -1.215336169479997E-6  -7.399308681488037E-1  -5.808594822883606E-1   3.893938469445857E-7   4.817483841179637E-6  
                        -1.069773929884832E-6   1.076900957741600E-6  -6.094323098659515E-2   5.735923536121845E-3  -3.226599346817238E-6  -9.890865840134211E-6  -7.372094690799713E-2  -9.881829023361206E-1  
                        
 1.165315000000000E10   -6.393568515777588E-1  -6.022735238075256E-1  -2.927106379502220E-7  -4.021848667434824E-7  -1.861556023359299E-1   2.197928130626679E-1  -2.904947905335575E-6  -3.542659442246077E-6  
                         1.486595238020527E-6  -5.520689683180535E-6  -1.044062674045563E-1  -9.888340830802918E-1   1.408334810548695E-6   1.925578345662871E-7  -6.109791994094849E-2   6.142727099359036E-3  
                        -1.851698756217957E-1   2.199748903512955E-1  -3.678497932924074E-6  -2.653137016750407E-6  -7.407156229019165E-1  -5.796844363212585E-1  -3.135834958811756E-6   5.625956418953138E-6  
                         3.900955107383197E-6  -4.858951001551759E-7  -6.095942854881287E-2   5.806338507682085E-3  -5.959800546406768E-6  -3.373517529325909E-6  -7.488148659467697E-2  -9.881215691566467E-1  
                        
 1.165330000000000E10   -6.403321623802185E-1  -6.012412905693054E-1   2.383258561167168E-6  -2.467483682266902E-6  -1.860381364822388E-1   2.202563583850861E-1   2.330543566131382E-6  -1.278963736695005E-6  
                         1.466208118472423E-6   3.426318926358363E-6  -1.055873781442642E-1  -9.886947274208069E-1   4.648262802220415E-6  -2.314226549060550E-6  -6.113951280713081E-2   6.203417200595141E-3  
                        -1.849348545074463E-1   2.205425053834915E-1   6.700932999592624E-7  -9.196016037549271E-8  -7.414605617523193E-1  -5.785443782806397E-1   4.280203029338736E-6  -1.653836079640314E-6  
                        -9.840431403063121E-7   8.995866096483951E-7  -6.097138300538063E-2   5.880772136151791E-3   3.199734237568919E-6   1.741722712722549E-6  -7.609105110168457E-2  -9.879274964332581E-1  
