#  HZ   S   RI   R     50.00 
! Rohde & Schwarz ZVA24 4Ports - Version 2.92 - 1145.1110k26 SN: 100307
! Date: 2021-03-18 21:25:31
! Measurements: S11 S12 S13 S14 S21 S22 S23 S24 S31 S32 S33 S34 S41 S42 S43 S44 
! 
 1.165000000000000E10   -6.202778816223145E-1  -6.235218644142151E-1  -2.380109435762279E-6   3.536764779710211E-6  -1.887808889150620E-1   2.087135910987854E-1   2.600791958684567E-6   3.970584202761529E-6  
                        -3.118971335425158E-6   9.746770501806168E-7  -7.930634915828705E-2  -9.908347129821777E-1   2.283020194226992E-6   3.512470584610128E-6  -6.041492521762848E-2   4.578033927828074E-3  
                        -1.877270489931107E-1   2.091926932334900E-1   3.498051455608220E-6   1.832666953305306E-6  -7.231897115707398E-1  -6.046889424324036E-1   2.303367182321381E-6   4.441507826413726E-6  
                         1.617671159692691E-6  -1.788647864486848E-6  -6.025425344705582E-2   4.175934940576553E-3   3.960005415137857E-6  -9.921303671944770E-7  -5.043751001358032E-2  -9.893191456794739E-1  
                        
 1.165015000000000E10   -6.212174892425537E-1  -6.225438714027405E-1   2.435970372971497E-6   5.810654329252429E-6  -1.886192709207535E-1   2.091706544160843E-1  -1.944016048582853E-6  -3.536769781931071E-6  
                         2.769600939700467E-7  -2.410646970929520E-7  -8.052045851945877E-2  -9.907999634742737E-1   2.446877715556184E-6  -7.075301255099475E-6  -6.044523045420647E-2   4.659894853830338E-3  
                        -1.876471340656281E-1   2.096539437770844E-1   3.150112206640188E-7   3.591344011510955E-6  -7.240418195724487E-1  -6.035200357437134E-1   9.588191005605040E-7   1.410608660989965E-6  
                         5.179607001082331E-7   1.599966708454303E-6  -6.025953590869904E-2   4.268297925591469E-3  -6.276962380979967E-7   1.575529154251854E-6  -5.160350352525711E-2  -9.894149303436279E-1  
                        
 1.165030000000000E10   -6.220758557319641E-1  -6.215237379074097E-1  -3.689526238304097E-6   4.074358002981171E-6  -1.885247826576233E-1   2.096025943756104E-1  -1.750436240399722E-6   2.316961399628781E-6  
                        -7.775762242090423E-6  -4.753817847813480E-6  -8.176889270544052E-2  -9.907606840133667E-1  -2.804698851832654E-6   3.887763341481332E-6  -6.048038601875305E-2   4.742365330457687E-3  
                        -1.874589622020721E-1   2.101079076528549E-1   2.423621936031850E-6   6.497237336589024E-6  -7.249004244804382E-1  -6.024179458618164E-1   5.851277364854468E-7   3.331023208374973E-7  
                        -2.694421027626959E-6  -2.841890591298579E-6  -6.028919294476509E-2   4.333552904427052E-3  -3.169642013745033E-6  -1.352592562398058E-6  -5.264992639422417E-2  -9.893680214881897E-1  
                        
 1.165045000000000E10   -6.230375766754150E-1  -6.205250620841980E-1   6.163458238006569E-6   5.706713182007661E-6  -1.883795857429504E-1   2.101176828145981E-1   2.650676833582111E-6  -2.544761628087144E-7  
                         1.364774959711212E-7  -1.028933183988556E-6  -8.296024054288864E-2  -9.905936121940613E-1  -3.292803683052625E-7   2.600184529910621E-7  -6.051893532276154E-2   4.810094367712736E-3  
                        -1.872496157884598E-1   2.105699777603149E-1   2.466409796397784E-6   2.715727305258042E-6  -7.256478667259216E-1  -6.012203693389893E-1  -2.379487341386266E-6   2.850117652997142E-6  
                        -2.173397462001958E-7   1.229400368174538E-6  -6.030701100826263E-2   4.407835658639669E-3  -2.801203208946390E-6   6.225268975867948E-7  -5.385768413543701E-2  -9.892414212226868E-1  
                        
 1.165060000000000E10   -6.239346861839294E-1  -6.196509003639221E-1   7.199908395705279E-6  -3.125216380794882E-6  -1.882765442132950E-1   2.105532139539719E-1   3.198247213731520E-7  -2.231770395155763E-6  
                         1.163091809530670E-7   4.568445092445472E-6  -8.426727354526520E-2  -9.905224442481995E-1   3.804114157901495E-6   3.620051302277716E-6  -6.047733500599861E-2   4.857134073972702E-3  
                        -1.872132867574692E-1   2.110901176929474E-1  -1.636323077036650E-6  -3.884807938447921E-6  -7.265058159828186E-1  -6.001676321029663E-1  -4.646694264920370E-7   4.041902684548404E-6  
                        -1.340745939160115E-6   5.055931069364306E-6  -6.036943569779396E-2   4.511931445449591E-3  -1.079458343156148E-6  -6.259735414460010E-7  -5.508038029074669E-2  -9.892225861549377E-1  
                        
 1.165075000000000E10   -6.248104572296143E-1  -6.186435818672180E-1   1.590248871252697E-6  -3.379392865099362E-6  -1.881383061408997E-1   2.110470682382584E-1  -1.594819281081072E-7   5.161979970580433E-6  
                        -1.736006879582419E-6   1.160211581918702E-6  -8.542910963296890E-2  -9.904904365539551E-1   6.674727046629414E-7  -4.905931518806028E-7  -6.055556610226631E-2   4.948566202074289E-3  
                        -1.870084553956986E-1   2.115268111228943E-1  -6.117671546235215E-6   1.645337988520623E-6  -7.273824810981751E-1  -5.990533232688904E-1  -9.951131687557790E-7  -8.761907679399883E-7  
                        -4.638955317659566E-7  -9.123014024225995E-7  -6.042338907718658E-2   4.557453095912933E-3  -3.528764409566065E-7   2.787919129332295E-6  -5.620191991329193E-2  -9.891684055328369E-1  
                        
 1.165090000000000E10   -6.256490945816040E-1  -6.177529692649841E-1  -2.963747647299897E-6   1.538904598419322E-6  -1.879605799913406E-1   2.115263193845749E-1   3.075964286836097E-6   1.814763891161420E-6  
                         1.203795022775012E-6  -1.067381731445494E-6  -8.662087470293045E-2  -9.903578162193298E-1  -3.881032171193510E-6   8.438765689788852E-6  -6.059683859348297E-2   5.038133822381496E-3  
                        -1.868876963853836E-1   2.120058685541153E-1   3.420381290197838E-6  -1.135067805080325E-6  -7.281391024589539E-1  -5.977760553359985E-1  -1.191432147606975E-6   1.039867242980108E-6  
                        -1.508672767158714E-6   6.468319497798802E-7  -6.040124222636223E-2   4.642601590603590E-3   4.791001174453413E-6   8.287156560982112E-6  -5.759329348802567E-2  -9.890382885932922E-1  
                        
 1.165105000000000E10   -6.265522837638855E-1  -6.167635321617127E-1  -9.136194307757251E-7   8.295516636280809E-6  -1.878319978713989E-1   2.120381295681000E-1  -3.575594973881380E-6  -2.905208475567633E-6  
                        -4.100717433175305E-6  -3.894967903761426E-6  -8.783145993947983E-2  -9.903901815414429E-1   3.486746891212533E-9  -2.904761913669063E-6  -6.060678139328957E-2   5.089135840535164E-3  
                        -1.867239624261856E-1   2.124460488557816E-1   6.164261208141397E-7  -3.599716137614450E-6  -7.290405035018921E-1  -5.967050194740295E-1   5.502472504304024E-7  -3.059332811972126E-6  
                         1.886883410406881E-6  -2.948480869235937E-6  -6.047058477997780E-2   4.684250336140394E-3  -1.782271738193231E-6   1.028005499392748E-6  -5.867855250835419E-2  -9.889906048774719E-1  
                        
 1.165120000000000E10   -6.275076866149902E-1  -6.157491207122803E-1  -1.248928924724169E-6   5.238483481662115E-6  -1.877368539571762E-1   2.124519944190979E-1  -6.843840310466476E-6   1.047858972924587E-6  
                         1.076146531886479E-6  -1.044259306581807E-6  -8.892703056335449E-2  -9.900919198989868E-1  -2.147049826817238E-8  -2.210255388490623E-6  -6.067371368408203E-2   5.196715705096722E-3  
                        -1.866026520729065E-1   2.129596471786499E-1  -2.230049631180009E-6  -1.547174406368868E-6  -7.297948598861694E-1  -5.955243706703186E-1  -3.217451649106806E-6   1.658221549405425E-6  
                        -4.011266355519183E-6  -4.678061486629304E-6  -6.047003343701363E-2   4.789957776665688E-3   5.315972430253169E-6  -4.523066309047863E-6  -5.982905626296997E-2  -9.887560606002808E-1  
                        
 1.165135000000000E10   -6.283965706825256E-1  -6.147475242614746E-1  -2.830696303135483E-6   6.999798642937094E-6  -1.875426471233368E-1   2.129234373569489E-1  -2.102294274664018E-6  -3.682259603010607E-6  
                        -1.467573724767135E-6  -4.886751980848203E-7  -9.019771218299866E-2  -9.900310635566711E-1  -2.352356204937678E-6   1.918501993714017E-6  -6.066652014851570E-2   5.182021297514439E-3  
                        -1.864659041166306E-1   2.134189009666443E-1  -4.661666025640443E-6   1.614198026800295E-6  -7.306689023971558E-1  -5.943813920021057E-1   4.334091954660835E-6  -8.430368438894220E-7  
                         6.507078069262207E-6  -2.013597537597889E-7  -6.050913035869598E-2   4.889944102615118E-3  -3.617960260271502E-7  -3.104236611761735E-6  -6.102211028337479E-2  -9.888390302658081E-1  
                        
 1.165150000000000E10   -6.292753219604492E-1  -6.138889789581299E-1  -8.460971230306313E-7  -1.712594780656218E-6  -1.874726116657257E-1   2.133955657482147E-1   1.317973101322423E-6  -7.857478863115830E-7  
                        -5.283272912492976E-6   1.514335963292979E-6  -9.140314161777496E-2  -9.898784756660461E-1  -1.307902039116016E-6   3.272466074122349E-6  -6.067045032978058E-2   5.359242204576731E-3  
                        -1.863678544759750E-1   2.139252722263336E-1   9.871004067463218E-7  -6.352464424708160E-6  -7.314727902412415E-1  -5.932965278625488E-1   1.325090011050634E-7  -3.633523874668754E-6  
                         1.769532559592335E-6  -3.196668558302918E-6  -6.055235490202904E-2   4.943046718835831E-3   1.071590986612137E-6  -9.410241545992903E-7  -6.221851333975792E-2  -9.887585043907166E-1  
                        
 1.165165000000000E10   -6.301027536392212E-1  -6.128044128417969E-1  -6.384499101841357E-6  -4.980594212611322E-7  -1.872867196798325E-1   2.139945626258850E-1   1.857025381468702E-6   3.194204225565045E-7  
                        -6.622159389735316E-7   4.951528467245225E-7  -9.260486811399460E-2  -9.897569417953491E-1   2.302473831150564E-6   3.383970806680736E-6  -6.073224544525147E-2   5.389933940023184E-3  
                        -1.861396580934525E-1   2.143653929233551E-1   1.357212681796227E-6   8.316908406413859E-7  -7.322191596031189E-1  -5.921439528465271E-1  -1.977258534680004E-6  -1.045613771566423E-6  
                         6.409896968762041E-7   1.449411001885892E-6  -6.057685613632202E-2   5.032765213400126E-3  -4.046161393489456E-6  -3.409840246604290E-6  -6.339828670024872E-2  -9.885910153388977E-1  
                        
 1.165180000000000E10   -6.310312151908875E-1  -6.118505597114563E-1  -6.676349357803701E-7  -4.344109356679837E-7  -1.871351897716522E-1   2.144100666046143E-1   1.590460328770860E-6   3.142264404232265E-6  
                         1.866029379016254E-6   7.328979449994222E-7  -9.369394928216934E-2  -9.896574020385742E-1  -1.252150582331524E-6   1.097773392189083E-7  -6.073688343167305E-2   5.486657842993736E-3  
                        -1.860288977622986E-1   2.148811519145966E-1   5.998047072353074E-6   1.832511770771816E-6  -7.331237792968750E-1  -5.908722877502441E-1  -2.901518655562541E-6  -3.543009142958908E-6  
                         1.572719952491752E-6  -5.675328793586232E-6  -6.060801446437836E-2   5.059957504272461E-3   1.742473756394247E-7   2.479922045495187E-7  -6.453730911016464E-2  -9.886003732681274E-1  
                        
 1.165195000000000E10   -6.319199800491333E-1  -6.109225749969482E-1   6.859108907519840E-7  -7.275409075191419E-7  -1.870076507329941E-1   2.148907482624054E-1   2.281861270603258E-6  -1.909027560031973E-6  
                         4.333905508246971E-6  -3.243342689529527E-6  -9.497132152318955E-2  -9.896124601364136E-1   4.216970864945324E-6   1.287119516746316E-6  -6.075426936149597E-2   5.573849659413099E-3  
                        -1.858389973640442E-1   2.153643667697907E-1  -8.768050975049846E-6  -1.854024844760716E-7  -7.339709401130676E-1  -5.897927284240723E-1  -3.445539675794862E-7  -8.261148423116538E-7  
                         4.287205229047686E-6   2.183927563237376E-6  -6.062038615345955E-2   5.174905993044376E-3   3.343215269069333E-7   4.163955509284278E-6  -6.582318246364594E-2  -9.884045720100403E-1  
                        
 1.165210000000000E10   -6.328244209289551E-1  -6.100251078605652E-1  -3.609173518270836E-6  -2.661640792211983E-6  -1.868616491556168E-1   2.153795659542084E-1  -2.202867563028121E-6   1.697096081443306E-6  
                         7.989222012838582E-7   4.556708899094986E-10  -9.630306065082550E-2  -9.895362854003906E-1  -1.790363057807554E-6  -3.814011051872512E-6  -6.077488139271736E-2   5.633553024381399E-3  
                        -1.856988370418549E-1   2.158180475234985E-1   4.286213879822753E-6  -4.227443696436239E-6  -7.347124814987183E-1  -5.886412858963013E-1  -5.392135790316388E-6  -7.214534434751840E-6  
                        -8.237140605160676E-7   4.870791485700465E-7  -6.065178662538528E-2   5.255229305475950E-3  -3.162404482282000E-6  -2.206464699838762E-7  -6.700662523508072E-2  -9.883926510810852E-1  
                        
 1.165225000000000E10   -6.336775422096252E-1  -6.089686751365662E-1   7.511358290912540E-8  -3.062947143916972E-6  -1.867308467626572E-1   2.158346176147461E-1  -4.622970948275906E-7  -6.508122964987706E-7  
                         2.856786295524216E-6  -9.278115612687543E-6  -9.745202958583832E-2  -9.893341660499573E-1  -9.361883144265448E-7   3.988896821738308E-7  -6.081387773156166E-2   5.712151061743498E-3  
                        -1.856050938367844E-1   2.163139581680298E-1   2.502808456483763E-6  -7.009497267063125E-7  -7.355610728263855E-1  -5.875234007835388E-1   6.973380095587345E-9  -2.457232540109544E-6  
                         3.332382220833097E-6  -7.098695277818479E-6  -6.066820025444031E-2   5.316718015819788E-3   2.155464017050690E-6   4.166516909265283E-9  -6.821077316999435E-2  -9.883552193641663E-1  
                        
 1.165240000000000E10   -6.345946192741394E-1  -6.079835891723633E-1   1.543388293612225E-6   9.051829010786605E-7  -1.865979284048080E-1   2.163257300853729E-1  -3.113622824457707E-6   2.489670350769302E-6  
                         3.432251389767771E-7   1.087419946088630E-6  -9.854917228221893E-2  -9.891880154609680E-1   2.133753014277318E-6   2.467785861881566E-6  -6.087416410446167E-2   5.774194840341806E-3  
                        -1.854426115751267E-1   2.168301194906235E-1   5.353257392926025E-7   1.288919861508475E-6  -7.363426089286804E-1  -5.862841606140137E-1  -5.337616130418610E-6   4.706624622485833E-6  
                         1.641273684072075E-6   3.415481160118361E-6  -6.068903207778931E-2   5.407098680734634E-3   2.842500407496118E-6   1.474852865612775E-6  -6.936700642108917E-2  -9.882483482360840E-1  
                        
 1.165255000000000E10   -6.354776620864868E-1  -6.070414781570435E-1  -4.908976279693889E-6  -1.109564209400560E-6  -1.864614337682724E-1   2.168309986591339E-1   7.926321814011317E-6  -1.332214310423296E-6  
                        -8.269275895145256E-7  -2.085626874759328E-6  -9.972664713859558E-2  -9.890401959419251E-1   4.098894351045601E-6   3.214496700820746E-6  -6.087143346667290E-2   5.845986772328615E-3  
                        -1.852842420339584E-1   2.172617316246033E-1  -9.532683407087461E-7   3.525193505993229E-7  -7.372075319290161E-1  -5.851899981498718E-1  -9.742740303408937E-7  -5.551259619096527E-6  
                         9.156995020020986E-7  -9.547844683766016E-7  -6.072170659899712E-2   5.474888253957033E-3   1.834679096646141E-6  -4.700482350017410E-6  -7.059383392333984E-2  -9.882306456565857E-1  
                        
 1.165270000000000E10   -6.363720297813416E-1  -6.059766411781311E-1   2.124293587257853E-6  -2.295545755259809E-6  -1.862947046756744E-1   2.172827124595642E-1   4.986219437341788E-7  -4.293859092285857E-6  
                         1.131354338212987E-6   8.925292718231503E-7  -1.009145081043243E-1  -9.889585971832275E-1  -3.221327062874480E-7   2.407403371762484E-6  -6.087109073996544E-2   5.939248483628035E-3  
                        -1.851021498441696E-1   2.177129834890366E-1  -3.051580279134214E-6   3.247631866543088E-6  -7.379116415977478E-1  -5.840164422988892E-1  -3.055562046938576E-6  -3.435147164054797E-6  
                        -5.353475671654451E-7  -7.889133257776848E-7  -6.074418872594833E-2   5.545366089791060E-3   1.087627993001661E-6  -2.556028903200058E-6  -7.171767950057983E-2  -9.879271388053894E-1  
                        
 1.165285000000000E10   -6.373177170753479E-1  -6.049348711967468E-1  -1.663343823565811E-6   8.060474669946416E-7  -1.862082779407501E-1   2.177921682596207E-1   1.577976036060136E-6  -3.609353598221787E-6  
                        -2.470874960636138E-6   5.368045549403178E-6  -1.021865829825401E-1  -9.888719916343689E-1   2.716478547881707E-6   1.280023298022570E-6  -6.091274321079254E-2   6.019127555191517E-3  
                        -1.849095374345779E-1   2.182486951351166E-1  -7.920258212834597E-6   4.598914983944269E-6  -7.387809753417969E-1  -5.829013586044312E-1   1.723794071040175E-6  -8.097077284219267E-7  
                         1.614639245417493E-6  -4.246103344485164E-6  -6.078052893280983E-2   5.642335396260023E-3   1.421915499122406E-6  -3.752032398551819E-6  -7.292127609252930E-2  -9.880298376083374E-1  
                        
 1.165300000000000E10   -6.382108330726624E-1  -6.038903594017029E-1   4.744348984786484E-7   4.134140908718109E-6  -1.860095113515854E-1   2.183082848787308E-1   6.250867954804562E-6  -3.898692284565186E-7  
                        -9.448489208807587E-7  -3.269231910962844E-6  -1.033295989036560E-1  -9.886511564254761E-1  -8.692519486430683E-7  -2.357890025450615E-6  -6.095936149358749E-2   6.096057593822479E-3  
                        -1.847755461931229E-1   2.187044918537140E-1  -1.485832115122321E-7   2.369595222262433E-6  -7.396301627159119E-1  -5.817686915397644E-1  -6.186600103319506E-7  -3.226487478968920E-6  
                         5.533424427994760E-6  -6.370454229909228E-6  -6.081090494990349E-2   5.691522732377052E-3  -5.154848167876480E-6  -3.816685421043076E-6  -7.409770041704178E-2  -9.879404902458191E-1  
                        
 1.165315000000000E10   -6.390517354011536E-1  -6.029700636863709E-1   8.530964237252192E-7  -4.437104507815093E-6  -1.858394443988800E-1   2.187646329402924E-1  -1.514047312412004E-6   7.221702162496513E-6  
                         6.801106337661622E-6  -2.048873056992306E-6  -1.046308055520058E-1  -9.886034727096558E-1   1.918763473440777E-6   5.776747912022984E-6  -6.098650395870209E-2   6.194825284183025E-3  
                        -1.846424043178558E-1   2.191585451364517E-1  -3.337028829264455E-6  -1.258039446838666E-6  -7.403818368911743E-1  -5.805761218070984E-1   1.471825044063735E-7  -1.712794869490608E-6  
                        -2.762969870673260E-6   2.702332949411357E-6  -6.085627153515816E-2   5.753034260123968E-3   6.513787411677185E-7  -1.217490989802172E-6  -7.530423253774643E-2  -9.877843856811523E-1  
                        
 1.165330000000000E10   -6.399355530738831E-1  -6.020874977111816E-1   4.910983079753351E-6   5.028471605328377E-6  -1.856690347194672E-1   2.193229496479034E-1  -4.403343154990580E-6  -1.311852884100517E-6  
                        -4.153926056460477E-6  -7.243813797686016E-6  -1.058417260646820E-1  -9.885109663009644E-1  -2.751804913714295E-6   3.152141061946168E-6  -6.100346893072128E-2   6.259157788008452E-3  
                        -1.845390945672989E-1   2.196926176548004E-1  -1.600717496330617E-6   9.476071682001930E-6  -7.411658167839050E-1  -5.794031620025635E-1  -2.222287548647728E-6  -4.780601102538640E-6  
                         1.569557070979499E-6  -1.646360828999605E-6  -6.083824858069420E-2   5.810386966913939E-3  -3.156857019348536E-6   2.854749027392245E-6  -7.644584774971008E-2  -9.876503348350525E-1  
