#  HZ   S   RI   R     50.00 
! Rohde & Schwarz ZVA24 4Ports - Version 2.92 - 1145.1110k26 SN: 100307
! Date: 2021-03-18 14:35:22
! Measurements: S11 S12 S13 S14 S21 S22 S23 S24 S31 S32 S33 S34 S41 S42 S43 S44 
! 
 1.165000000000000E10   -5.627871155738831E-1  -6.476472020149231E-1  -1.862168687694066E-6  -3.576866447474458E-7  -1.907553374767304E-1   1.989922970533371E-1  -3.091571159075102E-7  -6.127976121206302E-6  
                         2.659736765053822E-6  -3.180992734996835E-6  -8.021409809589386E-2  -9.905330538749695E-1  -6.788517339373357E-7   3.216362529201433E-6  -6.037450209259987E-2   4.838903900235891E-3  
                        -1.912633925676346E-1   1.976763159036636E-1  -8.710987344784371E-7  -6.920771284057992E-6  -7.248585820198059E-1  -6.055691242218018E-1   2.636435510794399E-6   1.153861035163573E-6  
                        -5.594792582996888E-6   4.248248387739295E-6  -6.026677414774895E-2   4.164396319538355E-3  -1.596782226442883E-6  -6.477753231592942E-7  -5.215400084853172E-2  -9.880660176277161E-1  
                        
 1.165015000000000E10   -5.637509822845459E-1  -6.468188762664795E-1  -2.719763415370835E-6   3.690360927066649E-6  -1.906578987836838E-1   1.994280517101288E-1   2.218600684500416E-6   3.210909881090629E-6  
                         1.443728706362890E-6  -2.881757836803445E-6  -8.137544244527817E-2  -9.904830455780029E-1  -9.944837984221522E-7  -3.024845455001923E-6  -6.046545878052712E-2   4.879717715084553E-3  
                        -1.911415904760361E-1   1.981104612350464E-1  -2.811513468259363E-6  -3.047119889743044E-8  -7.256986498832703E-1  -6.044272780418396E-1  -6.265781848924235E-7   1.367656409456686E-6  
                        -4.521858159023395E-7   8.188104061446211E-7  -6.028696894645691E-2   4.212917760014534E-3  -1.312975200562505E-6  -1.112350105358928E-6  -5.334794893860817E-2  -9.881739020347595E-1  
                        
 1.165030000000000E10   -5.646802186965942E-1  -6.458472013473511E-1  -8.513057423442660E-7  -4.315756086725742E-6  -1.905519664287567E-1   1.998774111270905E-1   3.252856004110072E-6  -5.211383268033387E-6  
                        -9.217085903401312E-7  -1.874546455837844E-6  -8.264679461717606E-2  -9.904841184616089E-1   3.451400289122830E-6  -5.820332262373995E-6  -6.046477705240250E-2   4.936452023684979E-3  
                        -1.910246312618256E-1   1.985446214675903E-1  -1.940810079759103E-6  -1.362317561870441E-6  -7.265869975090027E-1  -6.032556891441345E-1  -3.863287020067219E-6  -1.550499973745900E-6  
                         5.791226612927858E-6   2.356948243686929E-6  -6.033034995198250E-2   4.302424378693104E-3   3.771898718696320E-6   2.374259111093124E-6  -5.445422977209091E-2  -9.880651235580444E-1  
                        
 1.165045000000000E10   -5.657249689102173E-1  -6.449971795082092E-1   3.836241830867948E-6   4.080225608049659E-6  -1.904112398624420E-1   2.003751099109650E-1   2.142913672287250E-6  -2.895165152949630E-6  
                        -5.306661932991119E-6   2.880993406506605E-6  -8.373538404703140E-2  -9.902254939079285E-1   2.178720251322375E-6  -2.487433903297642E-6  -6.055118516087532E-2   5.013325717300177E-3  
                        -1.908377707004547E-1   1.990355253219605E-1   5.334348770702491E-6   2.284051561218803E-6  -7.273711562156677E-1  -6.021432876586914E-1  -2.296018692504731E-6   5.843399435434549E-7  
                        -3.230296897527296E-6  -2.365070258747437E-6  -6.032311543822289E-2   4.357071127742529E-3  -7.879127110754780E-7   1.667876404098934E-6  -5.561437830328941E-2  -9.880338907241821E-1  
                        
 1.165060000000000E10   -5.665679574012756E-1  -6.441834568977356E-1  -5.958412657491863E-6  -6.327760729618603E-6  -1.903331279754639E-1   2.007834613323212E-1   3.663937150122365E-6   6.308364390861243E-6  
                         1.124167056332226E-6  -2.370352149227983E-6  -8.505465835332871E-2  -9.901537895202637E-1  -1.589898602105677E-6   3.839210421574535E-6  -6.052038446068764E-2   5.099495407193899E-3  
                        -1.907752901315689E-1   1.995550096035004E-1   2.293292482136167E-6  -1.626470975679695E-7  -7.281612753868103E-1  -6.010452508926392E-1   3.608202860050369E-6   3.489822404389997E-7  
                        -1.739602907946392E-6   1.730117446641089E-6  -6.037138029932976E-2   4.458409268409014E-3  -2.522278009564616E-6  -9.219825187756214E-7  -5.686340481042862E-2  -9.879315495491028E-1  
                        
 1.165075000000000E10   -5.675656795501709E-1  -6.433308720588684E-1  -2.411669584034826E-6   9.577910304869874E-7  -1.901715248823166E-1   2.012916505336762E-1   3.618166147134616E-6   3.169425326632336E-7  
                        -4.350647941464558E-6   4.884762802248588E-6  -8.608404546976090E-2  -9.902064204216003E-1  -6.556876996910432E-6  -7.134589736779162E-7  -6.058423221111298E-2   5.172923672944307E-3  
                        -1.906804889440537E-1   1.999633312225342E-1  -1.392659896737314E-6   3.319632469356293E-6  -7.290890812873840E-1  -5.999498367309570E-1  -5.922218406340107E-6  -4.448815616342472E-6  
                         1.964034936463577E-6   3.398277385713300E-6  -6.039706990122795E-2   4.512330517172813E-3   4.091963546670741E-6  -5.043273176852381E-7  -5.799086764454842E-2  -9.879101514816284E-1  
                        
 1.165090000000000E10   -5.684396624565125E-1  -6.424660086631775E-1  -2.020102328970097E-6   4.151963821641402E-6  -1.901268213987351E-1   2.017266303300858E-1   7.578762051707599E-6   3.562735855666688E-6  
                        -4.810797804566391E-7  -1.685626330072410E-6  -8.741500973701477E-2  -9.900533556938171E-1  -1.938625246111769E-6  -2.955763875434059E-6  -6.060420349240303E-2   5.231950432062149E-3  
                        -1.904848068952560E-1   2.004235684871674E-1   5.400179361458868E-6   3.293750296506914E-6  -7.298346757888794E-1  -5.987444519996643E-1   5.948373200226342E-6   5.519528940567398E-7  
                         5.908346338401316E-6   2.528164714021841E-6  -6.040970981121063E-2   4.578621592372656E-3   1.915620941872476E-6  -1.436585648662003E-6  -5.935988202691078E-2  -9.876794815063477E-1  
                        
 1.165105000000000E10   -5.694237947463989E-1  -6.416155695915222E-1   2.121678789990256E-6   3.730453954631230E-6  -1.899382919073105E-1   2.022218108177185E-1  -1.979461330847698E-6   4.291371169529157E-6  
                         1.434656837773218E-6   2.286607468704460E-6  -8.849418908357620E-2  -9.900056123733521E-1   1.158754457719624E-6  -2.591720885902760E-6  -6.063119322061539E-2   5.334500689059496E-3  
                        -1.904019862413406E-1   2.008872628211975E-1  -1.922965566336643E-6   3.525954298311262E-6  -7.306827902793884E-1  -5.976001620292664E-1   1.366251126455609E-6  -1.895524178507912E-6  
                         1.640412619963172E-6   2.788785650409409E-6  -6.046603620052338E-2   4.672842100262642E-3   1.544750034554454E-6   3.977418145950651E-6  -6.052599474787712E-2  -9.877415895462036E-1  
                        
 1.165120000000000E10   -5.703127384185791E-1  -6.407343149185181E-1   2.512446826585801E-6   2.076794316963060E-6  -1.898731589317322E-1   2.026617228984833E-1   9.400235398970835E-7   5.812801646243315E-6  
                        -3.473278638921329E-6  -2.579930367119232E-7  -8.976697176694870E-2  -9.897814989089966E-1   2.227320692327339E-6   3.789680391719230E-8  -6.064490973949432E-2   5.376615095883608E-3  
                        -1.902929693460465E-1   2.013370841741562E-1  -6.547239991050446E-6   1.437102923773637E-6  -7.314758896827698E-1  -5.964662432670593E-1  -7.122399097170273E-7  -5.273512215353549E-6  
                         1.970357743630302E-6  -4.210526640235912E-6  -6.047152355313301E-2   4.730157554149628E-3   1.029640998240211E-6  -4.660224135477620E-7  -6.163204461336136E-2  -9.875548481941223E-1  
                        
 1.165135000000000E10   -5.713139772415161E-1  -6.398278474807739E-1  -7.495556815229065E-7   2.832705604305374E-6  -1.897124350070953E-1   2.030967772006989E-1  -3.901223863067571E-6  -3.778727204917232E-6  
                        -6.631496034970041E-6  -3.771436240640469E-6  -9.102109819650650E-2  -9.896716475486755E-1   1.138517632170988E-6  -4.499445083183673E-7  -6.066946685314179E-2   5.503155756741762E-3  
                        -1.900966763496399E-1   2.018041014671326E-1  -4.142849775234936E-6  -2.456437869113870E-6  -7.324068546295166E-1  -5.952869057655335E-1   4.142503257753560E-6   2.786244067465304E-6  
                         4.115016054129228E-6  -4.420437562657753E-6  -6.052342802286148E-2   4.839993547648192E-3   4.402011768434022E-7   1.724069647934812E-6  -6.282616406679153E-2  -9.875663518905640E-1  
                        
 1.165150000000000E10   -5.722067952156067E-1  -6.390423774719238E-1   4.152195288043004E-6   1.566305968481174E-6  -1.896628737449646E-1   2.035669386386871E-1  -1.405656803399324E-6   1.123425136029255E-6  
                        -3.035229383385740E-6  -1.109576373892196E-6  -9.212626516819000E-2  -9.895738959312439E-1   3.794753865804523E-6  -5.234975105850026E-6  -6.071778759360313E-2   5.528639536350966E-3  
                        -1.900602877140045E-1   2.023037075996399E-1   7.280693807842908E-7  -1.733510316626052E-6  -7.330647110939026E-1  -5.942479372024536E-1   6.015224244038109E-6  -1.622018089619814E-6  
                         1.693464014351775E-6  -5.120511559653096E-6  -6.054523587226868E-2   4.885802511125803E-3  -3.939645125683455E-7   3.083125079683668E-7  -6.399596482515335E-2  -9.874407052993774E-1  
                        
 1.165165000000000E10   -5.731198191642761E-1  -6.381282210350037E-1   6.259283509280067E-6  -2.281973138451576E-6  -1.894878149032593E-1   2.041295766830444E-1  -5.123573032506101E-7   4.003829872090137E-6  
                        -9.821000048759743E-7  -2.398591732344357E-6  -9.336067736148834E-2  -9.894390702247620E-1   2.014554411289282E-6  -2.769082811937551E-6  -6.075401604175568E-2   5.645125173032284E-3  
                        -1.899441480636597E-1   2.026982605457306E-1  -3.068744263146073E-6   4.919614298160013E-7  -7.339051961898804E-1  -5.930484533309937E-1  -1.731598331389250E-6   2.781985813271604E-6  
                        -4.000967237516306E-6   2.601697133286507E-6  -6.055867299437523E-2   4.957996774464846E-3   1.905801354951109E-6  -7.408885949189425E-7  -6.522863358259201E-2  -9.872620105743408E-1  
                        
 1.165180000000000E10   -5.741235017776489E-1  -6.372826695442200E-1  -4.120222001802176E-6   3.044438926735893E-6  -1.893019378185272E-1   2.046011090278626E-1   3.379922191015794E-6   4.747161028717528E-7  
                         4.827403699891875E-6   1.685795382400102E-6  -9.450404345989227E-2  -9.892920255661011E-1   3.559123342711246E-6   1.300866529163613E-6  -6.072510778903961E-2   5.683100782334805E-3  
                        -1.898085772991180E-1   2.032652199268341E-1  -6.545639621435839E-7   1.094948515856231E-6  -7.347972393035889E-1  -5.918316245079041E-1  -2.811566901073093E-6   6.690554528177017E-7  
                         5.160674390936038E-6   3.314292825962184E-6  -6.061545014381409E-2   5.093742161989212E-3  -2.832477775882580E-6  -2.978330712721800E-6  -6.639058887958527E-2  -9.873039722442627E-1  
                        
 1.165195000000000E10   -5.749632120132446E-1  -6.363556385040283E-1  -4.512042323767673E-6  -3.994703092757845E-6  -1.891668438911438E-1   2.050327062606812E-1   3.700699153341702E-6   5.266401331027737E-6  
                        -1.259154942090390E-6  -6.853774266346591E-6  -9.567125886678696E-2  -9.892747402191162E-1   7.906838277449424E-7   1.133444200718259E-7  -6.078256666660309E-2   5.757535342127085E-3  
                        -1.896609663963318E-1   2.037017643451691E-1   1.773854023667809E-6   2.954194542326150E-6  -7.355774641036987E-1  -5.907025337219238E-1   1.235518993780715E-6   3.665404904040770E-7  
                        -5.653346875078569E-7  -6.457130893977592E-6  -6.062924489378929E-2   5.105611402541399E-3   2.039802893705200E-6   4.947683464706643E-6  -6.759606301784515E-2  -9.871799349784851E-1  
                        
 1.165210000000000E10   -5.759737491607666E-1  -6.355479955673218E-1  -2.963801648547815E-7   3.737129645742243E-6  -1.890887767076492E-1   2.054542601108551E-1   6.095636763348011E-6  -1.420441321897670E-6  
                        -2.689174039005593E-7   2.333836619072827E-6  -9.688477218151093E-2  -9.892134070396423E-1  -1.264442744286498E-6  -1.446058035980968E-6  -6.082502007484436E-2   5.870638880878687E-3  
                        -1.894759833812714E-1   2.042007595300674E-1  -2.579269221314462E-6   1.290267277909152E-6  -7.363002896308899E-1  -5.895701050758362E-1   3.223612111469265E-6   7.713477430115745E-7  
                        -2.800865786412032E-6  -4.693231403507525E-6  -6.069685891270638E-2   5.170308053493500E-3   6.984766059758840E-6   4.178387371212011E-6  -6.889282166957855E-2  -9.871064424514771E-1  
                        
 1.165225000000000E10   -5.768375992774963E-1  -6.346278190612793E-1   1.171605504168838E-6   2.879916110032355E-6  -1.889812350273132E-1   2.059427648782730E-1   5.209600203670561E-6  -2.632359155541053E-6  
                         2.146322913176846E-6   9.705736374598928E-7  -9.810049831867218E-2  -9.889962077140808E-1   2.015008931266493E-6   2.233433406217955E-6  -6.082515418529511E-2   5.913457833230496E-3  
                        -1.893999129533768E-1   2.046780586242676E-1  -2.621481826281524E-6  -2.252055992357782E-6  -7.372254729270935E-1  -5.885016322135925E-1  -2.530489098262478E-7   2.474994516887819E-6  
                        -2.868826641133637E-6  -1.903948941617273E-6  -6.067828834056854E-2   5.275897216051817E-3   6.160520570119843E-6  -2.467706053721486E-6  -6.999436765909195E-2  -9.869810342788696E-1  
                        
 1.165240000000000E10   -5.779370069503784E-1  -6.337577104568481E-1  -4.364801213796454E-7  -5.337225957191549E-6  -1.888531446456909E-1   2.063823342323303E-1   2.185285666200798E-6   3.882322289427975E-6  
                         2.453866727591958E-6  -8.851018264977029E-7  -9.914903342723846E-2  -9.888018369674683E-1   3.761391553780413E-6   4.490529761369544E-7  -6.085817888379097E-2   6.030908785760403E-3  
                        -1.892797499895096E-1   2.051596194505692E-1   2.807785222103121E-6   1.419888349118992E-6  -7.379742264747620E-1  -5.872346162796021E-1   4.541656380752102E-6  -1.268420533051540E-6  
                        -4.579971118801041E-6  -1.530939925942221E-6  -6.072499603033066E-2   5.335619207471609E-3  -2.715248228923883E-6   3.445911715971306E-6  -7.114307582378388E-2  -9.869050979614258E-1  
                        
 1.165255000000000E10   -5.787140130996704E-1  -6.328794360160828E-1  -1.236111074831570E-6  -3.875032689393265E-6  -1.887567490339279E-1   2.069382369518280E-1   1.063800482370425E-5   8.863056564223371E-7  
                         5.828041139466222E-6  -1.976892463062541E-6  -1.004126742482185E-1  -9.887591004371643E-1   2.935274778792518E-6  -9.809267709215419E-8  -6.087811663746834E-2   6.068780086934567E-3  
                        -1.890983581542969E-1   2.056037187576294E-1   1.787453697943420E-6  -1.105770365938952E-6  -7.388584017753601E-1  -5.861338376998901E-1  -4.450108463061042E-6   6.694082230751519E-7  
                        -3.992478013969958E-6  -2.358384108447353E-6  -6.074087321758270E-2   5.407385993748903E-3  -2.780611794150900E-6   2.503941004761146E-6  -7.243986427783966E-2  -9.868600368499756E-1  
                        
 1.165270000000000E10   -5.797091126441956E-1  -6.319543123245239E-1  -3.845971150440164E-6   3.677611857710872E-6  -1.885740011930466E-1   2.074148654937744E-1  -1.912266270664986E-6  -5.204925400903449E-6  
                         4.170059582975227E-6  -9.420002243132331E-6  -1.015511825680733E-1  -9.885923862457275E-1  -6.485167318714957E-7  -1.459133272874169E-6  -6.089744716882706E-2   6.161565426737070E-3  
                        -1.889996826648712E-1   2.060181498527527E-1  -1.098592406378884E-6   1.460081193727092E-6  -7.395887970924377E-1  -5.849885344505310E-1  -2.010065600188682E-6   4.122910922887968E-6  
                        -8.447860636806581E-6  -4.805450316780480E-6  -6.078374385833740E-2   5.464551039040089E-3  -3.416056870264583E-6  -1.848866986620124E-6  -7.349935173988342E-2  -9.867930412292481E-1  
                        
 1.165285000000000E10   -5.806550979614258E-1  -6.310969591140747E-1   3.162721441185568E-6  -4.069139777129749E-6  -1.884784698486328E-1   2.077894508838654E-1  -3.068731757593923E-6   1.267141897187685E-6  
                        -6.352151103783399E-6   1.825412937250803E-6  -1.028348281979561E-1  -9.884431362152100E-1   1.826867332965776E-6  -3.746107040569768E-6  -6.092499196529388E-2   6.233745720237494E-3  
                        -1.888581216335297E-1   2.065042555332184E-1   9.489698982179107E-7  -4.862500645685941E-6  -7.403966188430786E-1  -5.838980674743652E-1   1.682692754911841E-6   1.492134288128000E-6  
                        -2.092497766170709E-7  -1.158181888172294E-7  -6.078341603279114E-2   5.572059191763401E-3   1.252777110494208E-6  -1.091060767066665E-6  -7.474429905414581E-2  -9.866428971290588E-1  
                        
 1.165300000000000E10   -5.816720724105835E-1  -6.301345825195313E-1   5.689029421773739E-6  -6.069061555535882E-7  -1.883377432823181E-1   2.083405405282974E-1  -6.389166173903504E-7  -4.190034985640523E-7  
                         3.462584800217883E-6   4.462136075744638E-6  -1.039413064718247E-1  -9.883178472518921E-1   2.024328750849236E-6  -1.680198920439580E-6  -6.097371876239777E-2   6.344815250486136E-3  
                        -1.887199133634567E-1   2.070563435554504E-1  -4.997594260203186E-6   3.461650521785487E-7  -7.412585020065308E-1  -5.827191472053528E-1  -1.533107933937572E-6   8.803316404737416E-7  
                        -1.612591859156964E-6   3.402397169338656E-6  -6.079725921154022E-2   5.643652752041817E-3   2.981830391490803E-7  -5.817380042572040E-6  -7.592476904392242E-2  -9.866133928298950E-1  
                        
 1.165315000000000E10   -5.824218392372131E-1  -6.292387843132019E-1   2.603067969175754E-6   4.258264198142570E-6  -1.882075071334839E-1   2.087884694337845E-1   2.229734036518494E-6  -2.367598199271015E-6  
                        -1.348279056401225E-6   1.559586394250800E-6  -1.051991134881973E-1  -9.883297085762024E-1  -9.132103855336027E-7  -2.053071057162015E-6  -6.098895147442818E-2   6.432256661355496E-3  
                        -1.885917186737061E-1   2.073853015899658E-1  -7.193700071184139E-7   4.864285187977657E-7  -7.420158982276917E-1  -5.815902352333069E-1  -2.302086613781285E-6  -6.186694463394815E-7  
                         3.137482451620599E-7   6.042559562047245E-6  -6.084401533007622E-2   5.715669598430395E-3  -4.854774942941731E-6  -2.558207143010804E-6  -7.716063410043716E-2  -9.865477085113525E-1  
                        
 1.165330000000000E10   -5.834525823593140E-1  -6.284304857254028E-1   1.718275711937167E-6  -6.883057722006925E-6  -1.880852431058884E-1   2.093247324228287E-1  -3.892492713930551E-6  -5.939405696153699E-7  
                        -5.139329459780129E-7  -4.283736871002475E-6  -1.064766421914101E-1  -9.881392717361450E-1  -2.037179001490586E-6   2.095563559123548E-6  -6.099120900034905E-2   6.457319483160973E-3  
                        -1.884785145521164E-1   2.079709023237228E-1  -2.371273694734555E-6   1.197338974634477E-6  -7.427560091018677E-1  -5.803757905960083E-1  -4.682001417677384E-6   1.592686544427124E-6  
                         1.521112039881700E-6  -6.984033461776562E-6  -6.088681146502495E-2   5.811374168843031E-3   3.629727189036203E-6   3.188256414432544E-7  -7.834953069686890E-2  -9.862983226776123E-1  
