#  HZ   S   RI   R     50.00 
! Rohde & Schwarz ZVA24 4Ports - Version 2.92 - 1145.1110k26 SN: 100307
! Date: 2021-03-18 14:37:57
! Measurements: S11 S12 S13 S14 S21 S22 S23 S24 S31 S32 S33 S34 S41 S42 S43 S44 
! 
 1.165000000000000E10   -5.621492862701416E-1  -6.483514904975891E-1  -1.818492933125526E-6   1.645953830120561E-6  -1.903881430625916E-1   1.981340944766998E-1   6.537302397191525E-7  -1.192057652588119E-6  
                        -7.163435384427430E-6  -2.060175120277563E-6  -8.001070469617844E-2  -9.904576539993286E-1  -2.002954602176033E-7   1.507566366854007E-6  -6.028005853295326E-2   4.800558090209961E-3  
                        -1.908281147480011E-1   1.969190239906311E-1   3.974504124926170E-6  -6.113339736657508E-7  -7.247145175933838E-1  -6.062836647033691E-1   2.205892542406218E-6   2.024887180596124E-6  
                        -4.218068454520108E-7  -1.133624209614936E-6  -6.011209264397621E-2   4.140861798077822E-3   6.190593353494478E-7  -3.978137101512402E-6  -5.262453109025955E-2  -9.878147244453430E-1  
                        
 1.165015000000000E10   -5.631515383720398E-1  -6.474872231483460E-1  -8.810714462015312E-6  -1.927873427121085E-6  -1.902127116918564E-1   1.985869854688644E-1   1.649168780204491E-6  -1.836861088122532E-6  
                        -1.763245222718979E-6  -1.972732661670307E-6  -8.105757087469101E-2  -9.904019236564636E-1   7.327237199206138E-7  -3.373578010723577E-6  -6.036461144685745E-2   4.876842722296715E-3  
                        -1.906945407390595E-1   1.973743587732315E-1   7.103769235072832E-7   2.802934659484890E-6  -7.255769968032837E-1  -6.051747202873230E-1  -2.774611971290142E-7  -1.122117055274430E-6  
                        -4.346321134107711E-7  -4.006842289072665E-7  -6.014167144894600E-2   4.199718125164509E-3  -2.899362470998312E-6  -7.316240413501873E-8  -5.376737937331200E-2  -9.879483580589294E-1  
                        
 1.165030000000000E10   -5.640931129455566E-1  -6.465829014778137E-1   1.990424834730220E-6  -3.659814865386579E-6  -1.901587843894959E-1   1.989968419075012E-1   6.031791031091416E-7   4.615606940205907E-6  
                         6.415368261514232E-6   2.559406311775092E-6  -8.234590291976929E-2  -9.904199242591858E-1   1.001248961074452E-6  -6.227442554518348E-6  -6.037801876664162E-2   4.927596542984247E-3  
                        -1.905807554721832E-1   1.978138834238052E-1   2.839272156052175E-6  -8.379172982131422E-7  -7.264879345893860E-1  -6.040813326835632E-1  -1.321067088611017E-6   3.050267594062461E-7  
                        -3.303880248495261E-6   7.390736300294520E-6  -6.018228456377983E-2   4.298108164221048E-3  -1.185102405543148E-6   9.075473030861758E-7  -5.493071302771568E-2  -9.879022836685181E-1  
                        
 1.165045000000000E10   -5.650702714920044E-1  -6.456756591796875E-1  -2.145215830751113E-6  -1.639055653868127E-6  -1.900339275598526E-1   1.995135396718979E-1   7.474703579646302E-6  -1.423121261723281E-6  
                        -1.771606662259728E-6  -1.907730620587245E-6  -8.351521939039230E-2  -9.902591109275818E-1   1.086808310901688E-6   1.584419123901171E-6  -6.037014350295067E-2   5.013102199882269E-3  
                        -1.904076784849167E-1   1.982512474060059E-1   3.446165464993101E-6   2.820992676788592E-6  -7.272190451622009E-1  -6.029072999954224E-1  -5.578504442382837E-6   3.367125145814498E-6  
                        -2.111140702254488E-6   1.251261096513190E-6  -6.023911014199257E-2   4.355074837803841E-3   5.956865607004147E-6  -4.227430963510415E-6  -5.614547803997994E-2  -9.877197742462158E-1  
                        
 1.165060000000000E10   -5.659695267677307E-1  -6.448585987091065E-1  -7.241407615765638E-7   3.454769341715291E-7  -1.899300515651703E-1   1.999589651823044E-1   1.563211867505743E-6   1.444269514649932E-6  
                         2.035723127846723E-6   5.121891263115685E-6  -8.488522469997406E-2  -9.900721311569214E-1  -2.221838713012403E-6   5.784711447631707E-7  -6.044300645589829E-2   5.093990825116634E-3  
                        -1.903352141380310E-1   1.987801045179367E-1   2.337134901608806E-6  -5.666893443390109E-8  -7.280921339988709E-1  -6.018135547637940E-1  -3.424373971938621E-6  -2.147401801266824E-6  
                        -1.675755470387230E-6  -3.162843995596631E-6  -6.026244536042213E-2   4.446677397936583E-3   3.897936494468013E-6   7.384025138890138E-6  -5.740690603852272E-2  -9.876195192337036E-1  
                        
 1.165075000000000E10   -5.669379830360413E-1  -6.439623832702637E-1  -9.262390676667565E-8   4.716962848760886E-6  -1.897843629121780E-1   2.004313766956329E-1   8.234846973209642E-6  -5.436738774733385E-7  
                        -8.202847538996139E-7  -3.651377710411907E-6  -8.598183095455170E-2  -9.900528192520142E-1  -3.595041334847338E-6   5.018744104745565E-6  -6.043631210923195E-2   5.156972445547581E-3  
                        -1.901792734861374E-1   1.991760581731796E-1  -2.830680159604526E-6  -1.041513201016642E-6  -7.289743423461914E-1  -6.007051467895508E-1   6.676087878076942E-7   3.123046553810127E-6  
                        -2.598898390715476E-6  -2.145133976227953E-6  -6.027615442872047E-2   4.485632758587599E-3  -4.317986622481840E-6   6.661325187451439E-6  -5.847514420747757E-2  -9.876172542572022E-1  
                        
 1.165090000000000E10   -5.678293108940125E-1  -6.431856751441956E-1   4.189661922282539E-6   3.455256091910997E-6  -1.896580606698990E-1   2.008913755416870E-1  -5.322538981999969E-6   9.453217444388429E-7  
                         5.992895069084625E-8  -5.794262847302889E-7  -8.713270723819733E-2  -9.899551272392273E-1  -4.003247340733651E-6  -4.116263596642966E-7  -6.045444682240486E-2   5.245635285973549E-3  
                        -1.900872737169266E-1   1.996518224477768E-1   1.439479433429369E-6  -8.939262556850736E-7  -7.297524809837341E-1  -5.994481444358826E-1   5.741355835198192E-7  -1.014459144244029E-6  
                         3.716453420565813E-6  -4.209820758660499E-7  -6.030817329883575E-2   4.545705858618021E-3  -2.772457264654804E-6  -3.421872634135070E-6  -5.987031757831574E-2  -9.874943494796753E-1  
                        
 1.165105000000000E10   -5.688211917877197E-1  -6.423846483230591E-1  -2.654781383171212E-6  -2.151017270080047E-6  -1.895636171102524E-1   2.013848423957825E-1   2.447400447636028E-6  -2.447939095873153E-6  
                        -6.557530127793143E-7  -4.893350251222728E-6  -8.829439431428909E-2  -9.899752140045166E-1   6.819117714940148E-9  -1.430978045391385E-6  -6.048502400517464E-2   5.321518518030644E-3  
                        -1.899943649768829E-1   2.001068294048309E-1  -3.707745008796337E-7  -6.683372248517117E-6  -7.305848002433777E-1  -5.983965992927551E-1  -1.383470134896925E-6   7.411191518258420E-7  
                         5.285388397169299E-6   1.877836098174157E-6  -6.034522131085396E-2   4.649275913834572E-3  -7.454956971741922E-7  -3.902179287251784E-6  -6.094448268413544E-2  -9.874180555343628E-1  
                        
 1.165120000000000E10   -5.697238445281982E-1  -6.415076851844788E-1   8.929738214646932E-6   6.662725354544818E-6  -1.894652396440506E-1   2.018158733844757E-1  -3.176937298121629E-6   1.425540631316835E-6  
                        -1.140153017331613E-6   5.209743903833441E-6  -8.950291574001312E-2  -9.898028969764710E-1   2.291228383910493E-6  -2.609226612548810E-6  -6.053106114268303E-2   5.407295189797878E-3  
                        -1.898925006389618E-1   2.005461305379868E-1  -3.187261654602480E-6   6.480785827989166E-7  -7.313768267631531E-1  -5.972846150398254E-1  -4.005566552223172E-6  -2.164940298143847E-7  
                        -1.046442889673926E-6  -3.286911351096933E-6  -6.039574742317200E-2   4.732088185846806E-3  -2.370539050389198E-6  -1.520966179668903E-6  -6.201035529375076E-2  -9.872213602066040E-1  
                        
 1.165135000000000E10   -5.706496238708496E-1  -6.405197381973267E-1   2.218389454355929E-6  -1.305174191656988E-5  -1.893337965011597E-1   2.022420167922974E-1   2.611818899822538E-6  -4.167076440353412E-6  
                         1.344998139529707E-7  -3.892785571224522E-6  -9.074759483337402E-2  -9.896137118339539E-1  -1.920620604778378E-7   2.480753209965769E-6  -6.053998693823814E-2   5.461036693304777E-3  
                        -1.897080391645432E-1   2.010442167520523E-1  -6.682746970909648E-6  -2.507970975784701E-6  -7.322838306427002E-1  -5.961284041404724E-1   1.687337999101146E-6  -1.299403152188461E-6  
                         2.450103124829184E-7  -1.356149141429341E-6  -6.038565188646317E-2   4.797907546162605E-3   2.746603740888531E-6   1.973356518192304E-7  -6.328868120908737E-2  -9.872976541519165E-1  
                        
 1.165150000000000E10   -5.716077685356140E-1  -6.397557854652405E-1  -1.143184590546298E-6   2.804340738293831E-6  -1.892763823270798E-1   2.027284502983093E-1   3.031761025340529E-6  -1.481640424572106E-6  
                        -8.997291160994791E-7  -9.136271046372713E-7  -9.188239276409149E-2  -9.894417524337769E-1  -4.988730779587058E-7  -1.735710611683317E-6  -6.058573722839356E-2   5.555326119065285E-3  
                        -1.896489858627319E-1   2.015113085508347E-1  -1.646434611757286E-6  -4.521755556652352E-7  -7.329639792442322E-1  -5.950816869735718E-1  -1.478468902860186E-6   2.009141553571681E-6  
                        -1.075410636985907E-6   4.535546850092942E-6  -6.040557101368904E-2   4.901451990008354E-3  -3.337818270665593E-6  -3.778415020860848E-6  -6.449177116155624E-2  -9.871767163276672E-1  
                        
 1.165165000000000E10   -5.725048780441284E-1  -6.388403177261353E-1  -4.902237378701102E-6  -1.860893803495856E-6  -1.891425848007202E-1   2.032702863216400E-1  -3.535297992129927E-6   3.610153271438321E-6  
                         2.522231170587475E-6   4.333960987423779E-6  -9.312041103839874E-2  -9.893879890441895E-1   7.111607942533738E-7  -5.441382199933287E-6  -6.062785163521767E-2   5.627265665680170E-3  
                        -1.894765347242355E-1   2.019407600164414E-1   9.103719094127882E-7  -3.357753712407430E-6  -7.337313294410706E-1  -5.938453078269959E-1   1.827759774641891E-7  -2.505019892851124E-6  
                        -2.229324991276371E-6   4.721159257314866E-6  -6.046046689152718E-2   4.950683563947678E-3   3.687585149236838E-6  -2.488757672836073E-6  -6.565671414136887E-2  -9.869724512100220E-1  
                        
 1.165180000000000E10   -5.734734535217285E-1  -6.379879117012024E-1   3.830574314633850E-6   6.504260454676114E-6  -1.889729946851730E-1   2.037014067173004E-1  -9.217277693096548E-6   3.977500000473810E-6  
                        -3.393713996047154E-6   6.109264631959377E-7  -9.422659873962402E-2  -9.892638921737671E-1  -4.687605269282358E-6  -8.275877917185426E-6  -6.061469018459320E-2   5.719017703086138E-3  
                        -1.893490254878998E-1   2.024528980255127E-1   4.956519319421204E-7   2.126420667991624E-6  -7.346534132957459E-1  -5.926875472068787E-1   2.940787680927315E-6   2.229657638963545E-6  
                         1.320285036854330E-6  -3.035506324522430E-6  -6.051246076822281E-2   5.019870586693287E-3  -2.514892912586220E-6   8.724518352209998E-7  -6.684596091508865E-2  -9.870043396949768E-1  
                        
 1.165195000000000E10   -5.744014382362366E-1  -6.370942592620850E-1   7.539953799096111E-7  -2.244147708552191E-6  -1.888675838708878E-1   2.041423022747040E-1   2.815599600580754E-6  -1.903470774777816E-6  
                        -7.014378979874891E-7   1.436514821762103E-6  -9.544324874877930E-2  -9.891978502273560E-1  -5.490262083185371E-6  -2.424813487778010E-7  -6.067128479480743E-2   5.779034458100796E-3  
                        -1.892383843660355E-1   2.029092311859131E-1  -1.444212784917909E-6   2.783216359603102E-6  -7.354260087013245E-1  -5.916494727134705E-1  -1.984723212444806E-7   9.633101853978587E-7  
                        -4.230986178299645E-6  -5.477068611980940E-7  -6.050108373165131E-2   5.132308695465326E-3   3.971908427047310E-6  -1.198410814140516E-6  -6.820865720510483E-2  -9.868663549423218E-1  
                        
 1.165210000000000E10   -5.753210783004761E-1  -6.362371444702148E-1  -1.695169657978113E-6   6.615161055378849E-6  -1.887831538915634E-1   2.046100348234177E-1  -1.969891400221968E-6   7.618133167852648E-6  
                        -2.810439809763921E-6   1.077970523510885E-6  -9.666483104228973E-2  -9.890981912612915E-1  -3.193010797986062E-6   1.484092280179539E-7  -6.071260198950768E-2   5.869339220225811E-3  
                        -1.890543252229691E-1   2.033741474151611E-1   9.187294125467815E-8  -5.052171218267176E-6  -7.362480163574219E-1  -5.903850793838501E-1  -3.157458195346408E-6   6.746542567270808E-6  
                         4.989734406990465E-6   2.002637074838276E-6  -6.052315607666969E-2   5.194609519094229E-3   1.225140636051947E-6   1.245477278644103E-6  -6.931446492671967E-2  -9.868427515029907E-1  
                        
 1.165225000000000E10   -5.762156844139099E-1  -6.353450417518616E-1   8.312233035212557E-7  -2.768182412182796E-6  -1.886304020881653E-1   2.051030695438385E-1  -1.661249712014978E-6   6.170351980472333E-7  
                         6.414726954062644E-7  -4.619474793798872E-7  -9.789457172155380E-2  -9.889708757400513E-1   7.263094630616251E-6  -7.183640263974667E-6  -6.072550639510155E-2   5.930125713348389E-3  
                        -1.889663189649582E-1   2.038533836603165E-1  -1.020788772621017E-6   1.790883175090130E-7  -7.371358871459961E-1  -5.893669724464417E-1   3.130996901745675E-7  -4.213156898913439E-6  
                        -3.593636620280449E-6  -7.611663022544235E-6  -6.057272106409073E-2   5.243170540779829E-3  -2.280048420288949E-6   1.778584078238055E-6  -7.057126611471176E-2  -9.867525100708008E-1  
                        
 1.165240000000000E10   -5.772103667259216E-1  -6.345136165618897E-1  -4.885123416897841E-6   7.508652544174765E-8  -1.885323822498322E-1   2.055439054965973E-1  -2.643225343490485E-6  -1.394054038428294E-6  
                        -9.435987067263341E-7   4.651172957892413E-8  -9.893619269132614E-2  -9.888678789138794E-1  -3.728689762283466E-6   2.051986257356475E-6  -6.075188890099526E-2   6.025335285812616E-3  
                        -1.888729482889175E-1   2.043253928422928E-1  -1.100376721296925E-6   1.541464712317975E-6  -7.378696799278259E-1  -5.881463885307312E-1  -3.040947831323138E-6  -1.412607844031300E-6  
                         2.541685034884722E-6  -3.146125663988642E-6  -6.056433916091919E-2   5.307875573635101E-3  -1.016074179460702E-6   3.972758349846117E-6  -7.169371098279953E-2  -9.865980744361877E-1  
                        
 1.165255000000000E10   -5.782464742660523E-1  -6.336679458618164E-1   5.156730367161799E-7  -4.145422280998901E-6  -1.883886158466339E-1   2.060175687074661E-1  -3.160763299092650E-6  -2.647894234542036E-6  
                         2.937621275123092E-6  -4.971874432158074E-7  -1.002063602209091E-1  -9.886667132377625E-1  -1.915939492391772E-6   2.872970526368590E-6  -6.076243147253990E-2   6.099639926105738E-3  
                        -1.886958479881287E-1   2.048122286796570E-1  -3.883315002894960E-7  -1.944225232364261E-6  -7.387194037437439E-1  -5.870394110679627E-1  -2.697606078072568E-6   1.159449197984941E-6  
                         1.209862944051565E-6  -5.309085736371344E-6  -6.061673909425736E-2   5.398674868047237E-3  -1.231376586474653E-6  -3.743429942915100E-6  -7.293279469013214E-2  -9.865830540657044E-1  
                        
 1.165270000000000E10   -5.791105031967163E-1  -6.327014565467835E-1  -3.217308176317602E-6   4.723405709228246E-6  -1.882210820913315E-1   2.064945399761200E-1  -5.753756340709515E-6   1.901576183627185E-6  
                        -4.068003818247234E-6  -2.216976781710400E-6  -1.013658940792084E-1  -9.886391758918762E-1   3.140762828479637E-6   1.803028794711281E-6  -6.081309169530869E-2   6.168736144900322E-3  
                        -1.885959804058075E-1   2.052335590124130E-1   1.291704847972142E-6   2.841009063558886E-6  -7.394120097160339E-1  -5.858532786369324E-1  -3.255488991271704E-6  -9.408604455529712E-7  
                        -1.368365133203042E-6   1.966762965821545E-6  -6.062332913279533E-2   5.453860387206078E-3   1.525445554761973E-6  -5.307835181156406E-6  -7.400757074356079E-2  -9.864479303359985E-1  
                        
 1.165285000000000E10   -5.800448060035706E-1  -6.318884491920471E-1   2.696480805752799E-6   7.629842571077461E-7  -1.881998181343079E-1   2.069277018308640E-1   4.066367637278745E-6   2.601383584988071E-6  
                        -5.761067313869717E-6  -2.233048007838079E-6  -1.025424897670746E-1  -9.884417057037354E-1  -9.234588560502743E-8   3.204741233275854E-6  -6.082387268543243E-2   6.231838371604681E-3  
                        -1.884502321481705E-1   2.057143449783325E-1  -2.915382538049016E-6  -9.930971600624616E-8  -7.402603030204773E-1  -5.847126245498657E-1  -3.338616352266399E-6   6.614199605792237E-7  
                        -2.547301164668170E-6  -1.641516860217962E-6  -6.068777665495873E-2   5.533979739993811E-3  -9.759011163623654E-7  -1.919948772410862E-6  -7.526095956563950E-2  -9.864097237586975E-1  
                        
 1.165300000000000E10   -5.809971094131470E-1  -6.308814883232117E-1   3.261851588831632E-6   3.632893310623331E-7  -1.880139857530594E-1   2.074467241764069E-1  -3.197435034962837E-6  -2.507970521037350E-6  
                         2.709178033910575E-6   8.397865514098157E-8  -1.036896407604218E-1  -9.882987141609192E-1  -3.145009941363242E-7   4.329797036461969E-7  -6.084912270307541E-2   6.337034516036511E-3  
                        -1.882697492837906E-1   2.062089443206787E-1  -6.867282991152024E-7   1.548389263916761E-6  -7.411242127418518E-1  -5.835900902748108E-1  -3.596249825932318E-6  -3.840081319594901E-7  
                         1.784330606824369E-6  -7.828018055988650E-7  -6.070455536246300E-2   5.646093748509884E-3  -1.002477688416548E-6   2.131185510734213E-6  -7.646048814058304E-2  -9.863252043724060E-1  
                        
 1.165315000000000E10   -5.818971395492554E-1  -6.300098299980164E-1   1.170159976027207E-6   9.237561471309164E-8  -1.878032535314560E-1   2.079095095396042E-1  -1.653507865739812E-6  -2.392873739154311E-6  
                         3.588363369999570E-6   2.002032715608948E-6  -1.050128787755966E-1  -9.882078766822815E-1   2.807936425597291E-6  -2.403299276920734E-6  -6.088700518012047E-2   6.428173277527094E-3  
                        -1.882192939519882E-1   2.066300362348557E-1  -2.860007043636870E-6  -2.403590769972652E-6  -7.418074011802673E-1  -5.824156999588013E-1  -8.271424007944006E-7  -1.673111341915501E-6  
                        -1.511696609668434E-6   7.997444129159703E-8  -6.073706969618797E-2   5.662892013788223E-3  -4.054611963510979E-6  -5.104168394609587E-6  -7.773259282112122E-2  -9.862033724784851E-1  
                        
 1.165330000000000E10   -5.828238725662231E-1  -6.291903853416443E-1  -2.337233581783949E-6  -1.322654497926123E-6  -1.877212077379227E-1   2.084165811538696E-1   1.906281568153645E-6  -2.590325721030240E-6  
                        -5.221245373832062E-6   5.236304787104018E-6  -1.062466502189636E-1  -9.881000518798828E-1   7.276746600837214E-7  -3.968706550949719E-6  -6.089276820421219E-2   6.522105075418949E-3  
                        -1.880694329738617E-1   2.071361839771271E-1  -4.445249487616820E-6   5.924828201386845E-6  -7.425866723060608E-1  -5.812125205993652E-1  -7.752615829303977E-7  -2.855736738638370E-6  
                         6.519335897792189E-7   1.700625375633535E-6  -6.077004969120026E-2   5.777849815785885E-3   2.851385488611413E-6  -2.446961389068747E-6  -7.888823002576828E-2  -9.860396981239319E-1  
