#  HZ   S   RI   R     50.00 
! Rohde & Schwarz ZVA24 4Ports - Version 2.92 - 1145.1110k26 SN: 100307
! Date: 2021-03-18 15:36:35
! Measurements: S11 S12 S13 S14 S21 S22 S23 S24 S31 S32 S33 S34 S41 S42 S43 S44 
! 
 1.165000000000000E10   -6.105341911315918E-1  -6.194332242012024E-1   5.613243274638080E-7   1.662483214204258E-6  -1.842355132102966E-1   2.041618525981903E-1  -1.654860284361348E-6   6.117876182543114E-6  
                        -2.372504923187080E-6  -4.603461547958432E-6  -8.309279382228851E-2  -9.905213117599487E-1   4.309248708977975E-7  -5.537657216336811E-6  -6.041421741247177E-2   4.820203874260187E-3  
                        -1.842254847288132E-1   2.034867107868195E-1   4.600696684065042E-6  -2.425587354082381E-6  -7.279343008995056E-1  -6.061803102493286E-1  -1.482549805587041E-6   1.241234826920845E-6  
                         1.691405486781150E-6   4.035586243844591E-6  -6.026100739836693E-2   4.277804866433144E-3   9.335839763480180E-7  -2.371614755247720E-6  -5.174008384346962E-2  -9.880988001823425E-1  
                        
 1.165015000000000E10   -6.115604639053345E-1  -6.184470057487488E-1  -4.383889518067008E-6   6.476495400420390E-6  -1.840653270483017E-1   2.046049237251282E-1  -4.698596512753284E-6   3.726158183781081E-6  
                        -3.547803999026655E-6  -6.471914844041748E-7  -8.423046022653580E-2  -9.903803467750549E-1   6.889565042911272E-7  -1.387257043461432E-6  -6.046867743134499E-2   4.866314120590687E-3  
                        -1.840545237064362E-1   2.039390951395035E-1  -1.667518176873273E-6  -4.045644345751498E-6  -7.288428544998169E-1  -6.050352454185486E-1   6.470887001341907E-6   3.698440650623525E-6  
                         4.951105552208901E-7   9.900426221065573E-7  -6.028571724891663E-2   4.306502174586058E-3   5.659303042193642E-6  -7.707087092967413E-7  -5.280550196766853E-2  -9.882291555404663E-1  
                        
 1.165030000000000E10   -6.124610900878906E-1  -6.174842715263367E-1  -2.586679329397157E-6   2.364505689911312E-6  -1.839539557695389E-1   2.050419747829437E-1   7.662670213903766E-7  -5.553931259782985E-6  
                        -1.504861756984610E-6  -7.808486770954914E-6  -8.544261753559113E-2  -9.904042482376099E-1   3.138468628094415E-6   6.245656095416052E-6  -6.046792119741440E-2   4.969511646777391E-3  
                        -1.839537620544434E-1   2.043615430593491E-1   3.009756483152160E-6  -7.720603889538324E-7  -7.296912670135498E-1  -6.039981842041016E-1  -3.110600346190040E-7  -4.563455888728640E-7  
                         5.756560383929354E-8  -2.947766915895045E-6  -6.027522310614586E-2   4.411489702761173E-3   5.298655878505088E-7   2.039137598330854E-6  -5.403318628668785E-2  -9.881498813629150E-1  
                        
 1.165045000000000E10   -6.133539080619812E-1  -6.165374517440796E-1   4.079862719663652E-6   2.335884573767544E-6  -1.838638633489609E-1   2.054844200611115E-1   9.135092113865539E-6   8.180043664651748E-8  
                        -3.477922064121231E-6  -2.719119152061467E-7  -8.666430413722992E-2  -9.901897311210632E-1  -5.428543090602034E-7  -3.948220637539635E-6  -6.050026789307594E-2   4.990197252482176E-3  
                        -1.837402433156967E-1   2.048214823007584E-1   3.126387355223415E-6  -2.245988213189776E-7  -7.304244637489319E-1  -6.027899980545044E-1   4.329416697146371E-6  -5.064778818564264E-8  
                        -3.255999672546750E-6  -5.604018724625348E-7  -6.033783778548241E-2   4.507784266024828E-3  -7.235031489472021E-7  -2.480464900145307E-6  -5.515462532639504E-2  -9.880349636077881E-1  
                        
 1.165060000000000E10   -6.141587495803833E-1  -6.157189011573792E-1  -5.609506388282171E-6   9.393759228260024E-7  -1.837388277053833E-1   2.059432268142700E-1  -8.253846317529678E-6   4.918420017929748E-6  
                        -6.400561687769368E-6   7.286888603630359E-7  -8.788114041090012E-2  -9.901828169822693E-1   7.200555387498753E-7   7.393198870886408E-7  -6.052659079432488E-2   5.080373026430607E-3  
                        -1.836919635534287E-1   2.053128033876419E-1  -6.760845735698240E-6   2.902853339037392E-6  -7.312967181205750E-1  -6.016976237297058E-1   2.873007133530336E-6  -2.282824652866111E-6  
                        -1.180312892756774E-6  -7.907426038400445E-7  -6.033986434340477E-2   4.604856017976999E-3   7.727389856881928E-6   6.022558864060557E-6  -5.636243522167206E-2  -9.879372119903565E-1  
                        
 1.165075000000000E10   -6.151541471481323E-1  -6.147791743278503E-1   3.015685024365666E-6  -2.590410531411180E-6  -1.835537999868393E-1   2.064312845468521E-1  -7.769327567075379E-6   1.440910750716284E-6  
                        -3.389169705769746E-6  -4.299940428609261E-6  -8.912500739097595E-2  -9.901806712150574E-1  -3.604133098633611E-6  -1.638647177060193E-6  -6.054487079381943E-2   5.176507867872715E-3  
                        -1.835331171751022E-1   2.057271748781204E-1  -8.571317380301480E-7   7.239161277539097E-6  -7.321644425392151E-1  -6.006230115890503E-1   6.877409305161564E-6   5.559666860222023E-8  
                        -9.222053449775558E-6  -1.954852677954477E-6  -6.038001924753189E-2   4.634267650544643E-3  -4.729645297629759E-6   2.590402573332540E-6  -5.750742927193642E-2  -9.878807663917542E-1  
                        
 1.165090000000000E10   -6.159868240356445E-1  -6.137813329696655E-1  -9.490418051427696E-7   2.617389327497222E-6  -1.834799945354462E-1   2.068063318729401E-1   3.188221853633877E-6   7.026868843240663E-6  
                         4.166921371506760E-6   2.251603063996299E-6  -9.027688205242157E-2  -9.899645447731018E-1  -2.664433509380615E-7   3.111972318947665E-6  -6.059098988771439E-2   5.255963187664747E-3  
                        -1.833898425102234E-1   2.062033414840698E-1  -1.192548666040239E-6  -3.546454081515549E-7  -7.329021096229553E-1  -5.993673801422119E-1  -2.700398454180686E-6   5.285010502120713E-6  
                         5.619337571260985E-6   1.321759668826417E-6  -6.038230285048485E-2   4.700682125985622E-3  -2.938404350061319E-6  -1.375938836645219E-6  -5.892496183514595E-2  -9.877596497535706E-1  
                        
 1.165105000000000E10   -6.169303655624390E-1  -6.128796935081482E-1   1.951920921783312E-6  -6.968513844185509E-6  -1.833256483078003E-1   2.073853015899658E-1   2.030638597716461E-6   1.074831970981904E-6  
                         8.988949957711157E-7  -6.767231184312550E-7  -9.146386384963989E-2  -9.899245500564575E-1  -9.271494150198123E-8  -1.673823931014340E-6  -6.059096008539200E-2   5.314247217029333E-3  
                        -1.832782924175263E-1   2.066389471292496E-1  -2.025607273026253E-6   2.653155490861536E-7  -7.338633537292481E-1  -5.982692241668701E-1  -1.283655137740425E-6  -2.619915903778747E-6  
                        -4.745526780425280E-7   2.724625346672838E-6  -6.046098470687866E-2   4.788692574948072E-3   6.167804826873180E-7   5.330591079655278E-7  -6.004574894905090E-2  -9.877632260322571E-1  
                        
 1.165120000000000E10   -6.178352832794190E-1  -6.119338274002075E-1  -9.867578683042666E-7  -9.299779776483774E-6  -1.831974089145660E-1   2.077534496784210E-1   1.381172523906571E-6  -1.972161726371269E-6  
                         1.736892272674595E-6   7.883099897298962E-7  -9.260076284408569E-2  -9.898084998130798E-1   2.323081616850686E-6   2.320369503649999E-6  -6.062819436192513E-2   5.394540727138519E-3  
                        -1.831542998552322E-1   2.071297615766525E-1   1.013518158288207E-6  -5.908770503992855E-7  -7.345265150070190E-1  -5.971199274063110E-1  -9.190407013193180E-7   1.156112929834308E-7  
                        -3.177385110575415E-8  -8.454623525722127E-7  -6.046952307224274E-2   4.855112172663212E-3  -3.380146608833456E-6   1.042911094373267E-6  -6.104042008519173E-2  -9.875977039337158E-1  
                        
 1.165135000000000E10   -6.187338829040527E-1  -6.108721494674683E-1   5.627678547170945E-6   2.156860546165262E-6  -1.830165386199951E-1   2.081677764654160E-1   1.823694333324966E-7   4.715172053693095E-6  
                         2.696103820198914E-6   5.117012165101187E-7  -9.382937848567963E-2  -9.896678924560547E-1   2.005464693866088E-6  -8.818846026770189E-7  -6.066960468888283E-2   5.484041292220354E-3  
                        -1.829257756471634E-1   2.076290398836136E-1   1.978420414161519E-6  -9.774846603249898E-7  -7.354031205177307E-1  -5.959987640380859E-1  -2.522507202229463E-6  -1.751946570038854E-6  
                        -2.403169446552056E-6   6.000042958476115E-6  -6.049839407205582E-2   4.948152229189873E-3   1.267413949790353E-6   4.473589342524065E-6  -6.236570328474045E-2  -9.875034093856812E-1  
                        
 1.165150000000000E10   -6.195792555809021E-1  -6.100231409072876E-1  -3.323005557831493E-6  -9.505419598099252E-7  -1.829636096954346E-1   2.086564600467682E-1   1.868447952801944E-6   1.628587142477045E-6  
                         5.692785407518386E-7  -2.247274096589536E-6  -9.498208016157150E-2  -9.895157217979431E-1   3.166008355037775E-6   3.370593333329452E-7  -6.067063659429550E-2   5.532362032681704E-3  
                        -1.828480213880539E-1   2.080938220024109E-1   3.784421551245032E-6  -4.110758254682878E-6  -7.360933423042297E-1  -5.949832797050476E-1   4.823848030355293E-6   2.739591309364187E-6  
                        -4.864074867327872E-7  -3.027195816684980E-6  -6.053891405463219E-2   5.025031510740519E-3  -5.953484105702955E-7   1.787964691857269E-7  -6.360593438148499E-2  -9.874713420867920E-1  
                        
 1.165165000000000E10   -6.204524636268616E-1  -6.090410351753235E-1   1.894465981422400E-6   8.654764656057523E-7  -1.828009039163590E-1   2.092368006706238E-1   2.195176421082579E-6  -3.940053829865065E-6  
                         4.057746991747990E-6  -1.695701030257624E-6  -9.624753892421722E-2  -9.893818497657776E-1  -5.747047907789238E-6   2.390663894402678E-6  -6.069422885775566E-2   5.620967596769333E-3  
                        -1.826982498168945E-1   2.084928303956986E-1   2.609624743854511E-6   5.463268280436751E-6  -7.369752526283264E-1  -5.937605500221252E-1   3.963923973060446E-6  -5.588495696429163E-6  
                         5.190729098103475E-6   4.505278411670588E-6  -6.058303266763687E-2   5.094571039080620E-3   8.774031243774516E-7  -4.225688371661818E-6  -6.471107900142670E-2  -9.873222112655640E-1  
                        
 1.165180000000000E10   -6.213778853416443E-1  -6.081717610359192E-1  -4.837820597458631E-6  -6.537273293361068E-6  -1.825893968343735E-1   2.096636742353439E-1   7.028039362921845E-6  -4.459017418412259E-6  
                         2.592877990537090E-6  -2.693127498787362E-6  -9.741102159023285E-2  -9.893040657043457E-1  -3.962870323448442E-6   2.012418690355844E-6  -6.073215603828430E-2   5.698639899492264E-3  
                        -1.825646162033081E-1   2.089641690254211E-1   3.140238050036714E-6  -1.890046519292810E-6  -7.378582358360291E-1  -5.924777388572693E-1   2.726629872995545E-6  -4.736349126233108E-7  
                         9.090744015338714E-7  -5.184524979995331E-6  -6.060744076967239E-2   5.170461721718311E-3  -3.930033471988281E-6  -2.434834414088982E-6  -6.590948253870010E-2  -9.872866272926331E-1  
                        
 1.165195000000000E10   -6.221832036972046E-1  -6.072210073471069E-1   2.384864501436823E-6  -5.775974841526477E-6  -1.825093924999237E-1   2.101323902606964E-1   5.545618364521943E-7  -3.341926003486151E-6  
                        -5.668223366228631E-6   1.357218025077600E-6  -9.858556836843491E-2  -9.891828298568726E-1   2.293209945491981E-6   2.630400103953434E-6  -6.077166646718979E-2   5.803264677524567E-3  
                        -1.823712587356567E-1   2.094470262527466E-1   4.371055183582939E-6   2.615542769035528E-7  -7.386460900306702E-1  -5.914722681045532E-1  -1.835485363699263E-6   5.008260814065579E-6  
                        -4.987896318198182E-7   1.847386329245637E-6  -6.061352416872978E-2   5.221200175583363E-3   3.457420461927541E-6  -1.107040361603140E-6  -6.716223061084747E-2  -9.871879816055298E-1  
                        
 1.165210000000000E10   -6.230801343917847E-1  -6.063130497932434E-1   2.803062898237840E-6  -1.197343976855336E-6  -1.823662072420120E-1   2.105660289525986E-1   6.922354714333778E-6  -4.508819074544590E-6  
                         4.351421011961065E-6   2.285175241922843E-6  -9.978815913200378E-2  -9.891111254692078E-1   1.626396283427312E-6  -6.720134479110129E-6  -6.080243363976479E-2   5.844962317496538E-3  
                        -1.822026818990707E-1   2.099289447069168E-1   1.111473579840094E-6   4.558299224299844E-6  -7.394732832908630E-1  -5.902323126792908E-1   1.413018111406927E-7  -6.184511676110560E-6  
                        -7.713552804489154E-6   4.169730516423442E-7  -6.062742322683334E-2   5.316738504916430E-3  -2.184719505748944E-6   1.491146463195037E-6  -6.836879253387451E-2  -9.871703982353210E-1  
                        
 1.165225000000000E10   -6.238864660263062E-1  -6.053353548049927E-1  -8.325502676598262E-6   7.481287980226625E-7  -1.822380423545837E-1   2.110340297222138E-1   4.185521447652718E-6   1.076895614460227E-6  
                        -2.385005018368247E-6  -3.205502423497819E-7  -1.010153219103813E-1  -9.889498353004456E-1  -4.512583871019160E-7   5.104339379613521E-6  -6.079628318548203E-2   5.927131511271000E-3  
                        -1.821015626192093E-1   2.103816121816635E-1   3.114508672297234E-6   1.793446244846564E-6  -7.403320670127869E-1  -5.891752839088440E-1  -1.187928546642070E-6   2.090189127557096E-6  
                        -2.358950268899207E-6  -7.797593752911780E-6  -6.068503856658936E-2   5.426757037639618E-3  -1.016896021610592E-6  -2.465955503794248E-6  -6.953047215938568E-2  -9.871185421943665E-1  
                        
 1.165240000000000E10   -6.249591708183289E-1  -6.043460369110107E-1   1.307766865465965E-6   2.993170710396953E-6  -1.820979565382004E-1   2.114910632371903E-1   8.706265361979604E-6   5.624740424536867E-6  
                        -1.909692400658969E-6   2.717853476497112E-6  -1.020769774913788E-1  -9.887804985046387E-1   2.103761147509431E-7  -2.138157697118004E-6  -6.081344559788704E-2   5.997003987431526E-3  
                        -1.819931119680405E-1   2.108915150165558E-1   3.949692199967103E-6   1.123218908105628E-6  -7.410956025123596E-1  -5.879384875297546E-1   6.214620498212753E-6  -3.625696081144270E-7  
                         8.353554221685045E-6   6.458451480284566E-6  -6.070398539304733E-2   5.438068415969610E-3   4.558844921120908E-6   8.401724699069746E-6  -7.072048634290695E-2  -9.870102405548096E-1  
                        
 1.165255000000000E10   -6.258294582366943E-1  -6.033929586410523E-1   2.258295126011944E-6   1.866115326265572E-6  -1.819750368595123E-1   2.119749784469605E-1  -3.584447085813736E-6   4.177355208412337E-7  
                        -3.269655508120195E-6  -2.265322336825193E-6  -1.033379808068276E-1  -9.887096881866455E-1  -4.789485046785558E-6   1.163553861260880E-6  -6.090556830167770E-2   6.090962793678045E-3  
                        -1.818252950906754E-1   2.113323956727982E-1  -3.686940544866957E-6  -1.550441879771825E-6  -7.418808937072754E-1  -5.868197679519653E-1  -1.730084704831825E-6   7.395873922177998E-7  
                         4.714255283033708E-6   4.301810349716106E-6  -6.073207780718803E-2   5.546974018216133E-3   2.935687007266097E-6  -8.054395834733441E-7  -7.185528427362442E-2  -9.869970679283142E-1  
                        
 1.165270000000000E10   -6.267250180244446E-1  -6.023940443992615E-1  -2.621407475089654E-6   4.562476078717737E-6  -1.817785948514938E-1   2.124466150999069E-1  -1.965833689610008E-6  -6.406404736480909E-6  
                        -3.237859118598863E-7   1.868520030257059E-6  -1.045334190130234E-1  -9.885253310203552E-1  -2.392224871528015E-7   1.524279014120111E-6  -6.090229004621506E-2   6.148210726678371E-3  
                        -1.816964596509934E-1   2.117572724819183E-1  -5.247886747383745E-6   7.435490374518849E-7  -7.426118254661560E-1  -5.856496691703796E-1  -3.252411261200905E-6   7.551928433713329E-7  
                        -1.212998313349090E-6  -2.676222493391833E-6  -6.076687574386597E-2   5.608301144093275E-3   2.784703610814177E-6   1.534410330350511E-6  -7.301612943410873E-2  -9.868284463882446E-1  
                        
 1.165285000000000E10   -6.276081204414368E-1  -6.014381647109985E-1  -4.621101197699318E-6  -3.110264742645086E-6  -1.817260980606079E-1   2.128676027059555E-1  -5.936250317972736E-7   2.332371195734595E-6  
                        -4.310939402785152E-6  -3.855911359096353E-7  -1.056830883026123E-1  -9.884512424468994E-1  -2.593632189018535E-6  -6.576443638550700E-7  -6.092597544193268E-2   6.203622557222843E-3  
                        -1.814833283424377E-1   2.122521549463272E-1   3.662712799723522E-7   1.449209548809449E-6  -7.435218095779419E-1  -5.845081806182861E-1  -8.111068154903478E-7  -6.739817308698548E-7  
                         3.587301534935250E-6  -1.387143811371061E-6  -6.078585609793663E-2   5.732394289225340E-3   4.586685918184230E-6   1.426444441676722E-6  -7.431687414646149E-2  -9.866290092468262E-1  
                        
 1.165300000000000E10   -6.284908652305603E-1  -6.003895401954651E-1   5.500752649822971E-6  -2.812894877024519E-7  -1.815351098775864E-1   2.134289592504501E-1   3.784433147302480E-6   1.351010723738000E-6  
                        -5.015230613025778E-7  -2.166276317439042E-6  -1.068231910467148E-1  -9.882720708847046E-1   6.920394213238978E-8  -2.245953055535210E-6  -6.095853075385094E-2   6.316205020993948E-3  
                        -1.813344657421112E-1   2.127560675144196E-1  -3.066968929488212E-6  -1.000746010504372E-6  -7.443698644638062E-1  -5.833859443664551E-1  -1.450562194804661E-6   4.212719886709238E-6  
                        -1.396926904817519E-6   5.458600298879901E-6  -6.082046031951904E-2   5.798710510134697E-3   1.192263653138070E-6   7.626740625710227E-7  -7.548153400421143E-2  -9.866355657577515E-1  
                        
 1.165315000000000E10   -6.292812228202820E-1  -5.996009111404419E-1  -2.905033397837542E-6  -4.621905191015685E-6  -1.813615560531616E-1   2.138615250587463E-1  -6.626879439863842E-6   2.261039497852835E-7  
                         8.110831913654693E-6   1.605128886694729E-6  -1.081516593694687E-1  -9.881855249404907E-1  -1.405894749950676E-6  -1.781248329280061E-6  -6.098958849906921E-2   6.422144360840321E-3  
                        -1.812743097543716E-1   2.131232172250748E-1  -2.135970817107591E-6   2.122472096743877E-6  -7.450881600379944E-1  -5.822367072105408E-1  -7.076770089042839E-6  -4.816793648387829E-7  
                        -2.373834462332525E-7  -6.218835096660769E-6  -6.082999706268311E-2   5.818629171699286E-3  -2.310405875505239E-7  -5.695464096788783E-6  -7.666210085153580E-2  -9.865495562553406E-1  
                        
 1.165330000000000E10   -6.302214860916138E-1  -5.985646247863770E-1  -2.886571337512578E-6  -4.387203773603687E-7  -1.812077462673187E-1   2.143360972404480E-1   9.240141480404418E-6   2.910962848545751E-6  
                         6.109647529228823E-6  -2.712014293138054E-6  -1.092727258801460E-1  -9.880647063255310E-1   5.189122930460144E-6  -6.399872745532775E-6  -6.099797040224075E-2   6.509035360068083E-3  
                        -1.810662001371384E-1   2.136476039886475E-1   2.124079401255585E-6  -4.526525572146056E-6  -7.458495497703552E-1  -5.810426473617554E-1  -4.957730652677128E-7   3.009018200827995E-6  
                        -7.391322014882462E-6  -3.017762992385542E-6  -6.083483621478081E-2   5.910968407988548E-3   3.821038717433112E-6  -2.747137614278472E-6  -7.785553485155106E-2  -9.863450527191162E-1  
